  can1  18F03300   [8]  FF FF FF FF FF FF FF FF
  can1  0C010305   [8]  FF FF FF FF FF F3 FF FF
  can1  0CF00400   [8]  48 B4 A7 6C 25 00 0F A8
  can1  0CF00203   [8]  C1 19 02 FF F7 37 07 03
  can1  18FCF200   [8]  E1 FF FF FF FF FF FF FF
  can1  0CF00C03   [8]  68 06 59 25 FF FF FF FF
  can1  18FEDF00   [8]  8E A0 28 7D 7D FF FF F1
  can1  18F00F00   [8]  FF FF FF FF FF FF FF FF
  can1  0CF00203   [8]  C1 29 02 FF F7 74 07 03
  can1  0CF00300   [8]  D0 92 31 FF FF 4F 6A 87
  can1  18FEF100   [8]  FF 14 02 FC FF 44 00 CF
  can1  18FD7B00   [8]  03 FF FB 5A 00 00 1F 2A
  can1  0CF00400   [8]  08 B3 A8 B9 25 00 0F A8
  can1  0CF00203   [8]  C1 29 02 FF F7 74 07 03
  can1  10FDA300   [8]  FF FF 24 FF FF FF FF FF
  can1  0CF00C03   [8]  65 06 AE 25 FF FF FF FF
  can1  18F00029   [8]  F0 7D 7D F3 29 FF FF 3A
  can1  18FEDF00   [8]  8E A0 28 7D 7D FF FF F1
  can1  0CF00203   [8]  C1 3A 02 FF F7 B3 07 03
  can1  18FCDC00   [8]  9F FF FF FF E0 44 14 02
  can1  0CF00300   [8]  D0 92 32 FF FF 4F 6B 87
  can1  1CFE9200   [8]  FF 5C E3 FF FF FF 42 00
  can1  18F00131   [8]  FF FF FF 3F 00 FF FF FF
  can1  18FEF131   [8]  F3 FF FF C3 CC FF FF F0
  can1  18FEF031   [8]  FF FF FF FF FF FC CC FF
  can1  18F0010B   [8]  CF FF F0 FF FF CD FF FF
  can1  18FF4831   [8]  00 00 FF FF 00 00 00 00
  can1  0CF00400   [8]  68 B3 A8 18 26 00 0F A9
  can1  18FEF231   [8]  FF FF FF FF FF FF FF FF
  can1  0CF00331   [8]  FF FF FF FF FF FF FF FF
  can1  0CF00203   [8]  C1 3A 02 FF F7 B3 07 03
  can1  0CF00A00   [8]  00 00 3C 0F FF FF FF FF
  can1  0CF00C03   [8]  61 06 27 26 FF FF FF FF
  can1  18FD9400   [8]  00 00 FF FF FF FF FF FF
  can1  18FEDD00   [8]  FF 75 1A FF FF FF FF FF
  can1  18F00E00   [8]  38 3A FF FF D5 9F FF FF
  can1  18FEBF0B   [8]  A0 02 7D 7D 7D 7D FF FF
  can1  18F03300   [8]  FF FF FF FF FF FF FF FF
  can1  0C010305   [8]  FF FF FF FF FF F3 FF FF
  can1  18FEDF00   [8]  8D A0 28 7D 7D FF FF F1
  can1  0CF00203   [8]  C1 53 02 FF F7 EE 07 03
  can1  18FEE000   [8]  25 92 00 00 6E FB 34 00
  can1  0CF00300   [8]  D0 93 33 FF FF 4F 6D 87
  can1  18FEF200   [8]  C3 00 6C 00 79 09 E1 FF
  can1  18F00F00   [8]  FF FF FF FF FF FF FF FF
  can1  0CF00400   [8]  68 B3 A9 71 26 00 0F AA
  can1  0CF00203   [8]  C1 53 02 FF F7 EE 07 03
  can1  18FEE400   [8]  FF 3F FC FC 00 7F FF FF
  can1  0CF00C03   [8]  5D 06 A9 26 FF FF FF FF
  can1  18F00503   [8]  7E 1E 0C 7E 35 20 31 43
  can1  18FE4A03   [8]  03 0F 4F FF FF F3 FF FF
  can1  18FEDF00   [8]  8D A0 28 7D 7D FF FF F1
  can1  10FCFD00   [8]  FF FF FF FF D6 79 FF FF
  can1  0CFD9200   [8]  F4 FF FF FF FF FF FF FF
  can1  0CF00203   [8]  C1 68 02 FF F7 30 08 03
  can1  0CF00300   [8]  D0 93 34 FF FF 4F 6F 86
  can1  18F00100   [8]  FF FF FF FF FF FF FF FF
  can1  0CF00400   [8]  78 B3 AA B1 26 00 0F AB
  can1  0CF00203   [8]  C1 68 02 FF F7 30 08 03
  can1  0CF00C03   [8]  59 06 A9 26 FF FF FF FF
  can1  0CF00331   [8]  FF FF FF FF FF FF FF FF
  can1  18FEDF00   [8]  8D A0 28 7D 7D FF FF F1
  can1  0CF00203   [8]  C1 7B 02 FF F7 69 08 03
  can1  0CF00300   [8]  D0 94 35 FF FF 4F 72 86
  can1  0CF00A00   [8]  00 00 BF 0F FF FF FF FF
  can1  18FEF000   [8]  FF FF FF 9F 26 FF FF FF
  can1  18FEBD00   [8]  00 F0 FF FF FF FF FF FF
  can1  18F00E00   [8]  7E 3B FF FF D5 9F FF FF
  can1  18F03300   [8]  FF FF FF FF FF FF FF FF
  can1  0C010305   [8]  FF FF FF FF FF F3 FF FF
  can1  0CF00400   [8]  68 B3 AB ED 26 00 0F AC
  can1  0CF00203   [8]  C1 7B 02 FF F7 69 08 03
  can1  18FCF200   [8]  E1 FF FF FF FF FF FF FF
  can1  0CF00C03   [8]  56 06 E0 26 FF FF FF FF
  can1  18FEDF00   [8]  8D A0 28 7D 7D FF FF F1
  can1  18E0FF00   [8]  00 FF FF FF FF FF FF FF
  can1  18F00F00   [8]  FF FF FF FF FF FF FF FF
  can1  0CF00203   [8]  C1 8D 02 FF F7 9A 08 03
  can1  0CF00300   [8]  D0 94 37 FF FF 4F 74 86
  can1  18FEF100   [8]  FF 80 02 FC FF 44 00 CF
  can1  18FEEE00   [8]  87 FF FF FF FF FF FF FF
  can1  0CF00400   [8]  38 B3 AC 41 27 00 0F AC
  can1  0CF00203   [8]  C1 8D 02 FF F7 9A 08 03
  can1  10FDA300   [8]  FF FF 24 FF FF FF FF FF
  can1  0CF00C03   [8]  54 06 4C 27 FF FF FF FF
  can1  18F00029   [8]  F0 7D 7D F3 29 FF FF 3A
  can1  18FEDF00   [8]  8D A0 28 7D 7D FF FF F1
  can1  0CF00203   [8]  C1 9D 02 FF F7 BE 08 03
  can1  18FCDC00   [8]  9F FF FF FF E0 44 80 02
  can1  0CF00300   [8]  D0 94 37 FF FF 4F 76 86
  can1  1CFE9200   [8]  FF 28 DC FF FF FF 54 00
  can1  18FEF500   [8]  A9 FF FF 33 25 FF FF FF
  can1  18F00131   [8]  FF FF FF 3F 00 FF FF FF
  can1  18FEF131   [8]  F3 FF FF C3 CC FF FF F0
  can1  18FEF031   [8]  FF FF FF FF FF FC CC FF
  can1  18F0010B   [8]  CF FF F0 FF FF CD FF FF
  can1  18FF4831   [8]  00 00 FF FF 00 00 00 00
  can1  0CF00400   [8]  28 B3 AD 9A 27 00 0F AD
  can1  18FEF231   [8]  FF FF FF FF FF FF FF FF
  can1  0CF00331   [8]  FF FF FF FF FF FF FF FF
  can1  0CF00203   [8]  C1 9D 02 FF F7 BE 08 03
  can1  14FC9800   [8]  FF 00 00 00 00 00 00 FF
  can1  0CF00C03   [8]  52 06 C3 27 FF FF FF FF
  can1  0CF00A00   [8]  00 00 2F 10 FF FF FF FF
  can1  18FD9400   [8]  00 00 FF FF FF FF FF FF
  can1  18F00E00   [8]  0A 3D FF FF D5 9F FF FF
  can1  18F03300   [8]  FF FF FF FF FF FF FF FF
  can1  18FEBF0B   [8]  00 03 7D 7D 7F 7F FF FF
  can1  0C010305   [8]  FF FF FF FF FF F3 FF FF
  can1  18FEDF00   [8]  8D A0 28 7D 7D FF FF F1
  can1  0CF00203   [8]  C1 AD 02 FF F7 EE 08 03
  can1  18FEE000   [8]  25 92 00 00 6E FB 34 00
  can1  0CF00300   [8]  D0 94 39 FF FF 4F 78 86
  can1  18FEA400   [8]  FF FF 6A 2A FF FF 91 2C
  can1  18FDB400   [8]  16 42 A6 3F FF FF FF FF
  can1  18FEF200   [8]  F7 00 60 00 79 09 E1 FF
  can1  18F00F00   [8]  FF FF FF FF FF FF FF FF
  can1  0CF00400   [8]  08 B3 AE F1 27 00 0F AE
  can1  0CF00203   [8]  C1 AD 02 FF F7 EE 08 03
  can1  0CF00C03   [8]  51 06 DB 27 FF FF FF FF
  can1  18F00503   [8]  7E 1E 0C 7E 35 20 31 43
  can1  18FE4A03   [8]  03 0F 4F FF FF F3 FF FF
  can1  18FEDF00   [8]  8D A0 28 7D 7D FF FF F1
  can1  10FCFD00   [8]  FF FF FF FF D6 7D FF FF
  can1  0CF00203   [8]  C1 C6 02 FF F7 17 09 03
  can1  0CF00300   [8]  D0 95 39 FF FF 4F 7A 86
  can1  18FD7C00   [8]  F8 83 00 00 C3 0F 03 FF
  can1  18F00100   [8]  FF FF FF FF FF FF FF FF
  can1  0CF00400   [8]  58 B3 AE 23 28 00 0F AF
  can1  0CF00203   [8]  C1 C6 02 FF F7 17 09 03
  can1  18FDB300   [8]  FF FF 66 3E FF FF FF FF
  can1  0CF00C03   [8]  4E 06 1F 28 FF FF FF FF
  can1  0CF00331   [8]  FF FF FF FF FF FF FF FF
  can1  18FEDF00   [8]  8D A0 28 7D 7D FF FF F1
  can1  0CF00203   [8]  C1 D5 02 FF F7 51 09 03
  can1  0CF00300   [8]  D0 95 3A FF FF 4F 7C 86
  can1  0CF00A00   [8]  00 00 B3 10 FF FF FF FF
  can1  18FEF000   [8]  FF FF FF 12 28 FF FF FF
  can1  18F00E00   [8]  BC 3E FF FF D5 9F FF FF
  can1  18F03300   [8]  FF FF FF FF FF FF FF FF
  can1  18FE9A00   [8]  88 26 FF FF FF FF FF FF
  can1  0C010305   [8]  FF FF FF FF FF F3 FF FF
  can1  0CF00400   [8]  28 B3 AF 6F 28 00 0F AF
  can1  0CF00203   [8]  C1 D5 02 FF F7 51 09 03
  can1  18FDB200   [8]  FF FF FF FF 0A 00 FF FF
  can1  0CF00C03   [8]  4B 06 87 28 FF FF FF FF
  can1  18FCF200   [8]  E1 FF FF FF FF FF FF FF
  can1  18FEDF00   [8]  8D A0 28 7D 7D FF FF F1
  can1  18F00F00   [8]  FF FF FF FF FF FF FF FF
  can1  0CF00203   [8]  C1 E2 02 FF F7 9E 09 03
  can1  0CF00300   [8]  D0 95 3B FF FF 4F 7D 86
  can1  18FEF100   [8]  FF D0 02 FC FF 44 00 CF
  can1  0CF00400   [8]  58 B3 AF B5 28 00 0F B0
  can1  0CF00203   [8]  C1 E2 02 FF F7 9E 09 03
  can1  10FDA300   [8]  FF FF 24 FF FF FF FF FF
  can1  0CF00C03   [8]  46 06 BE 28 FF FF FF FF
  can1  18FE9900   [8]  FF FF FF FF FF FF FF FF
  can1  18F00029   [8]  F0 7D 7D F3 29 FF FF 39
  can1  18FD8C00   [8]  FF FF 05 00 FF FF FF FF
  can1  18FEDF00   [8]  8D A0 28 7D 7D FF FF F1
  can1  0CF00203   [8]  C1 FB 02 FF F7 DF 09 03
  can1  18FCDC00   [8]  9F FF FF FF E0 44 D0 02
  can1  0CF00300   [8]  D0 96 3C FF FF 4F 7E 86
  can1  1CFE9200   [8]  FF 54 DA FF FF FF 64 00
  can1  18F00131   [8]  FF FF FF 3F 00 FF FF FF
  can1  18FEF131   [8]  F3 FF FF C3 CC FF FF F0
  can1  18FEF031   [8]  FF FF FF FF FF FC CC FF
  can1  18FF4831   [8]  00 00 FF FF 00 00 00 00
  can1  18F0010B   [8]  CF FF F0 FF FF CD FF FF
  can1  0CF00400   [8]  18 B3 B0 F9 28 00 0F B0
  can1  18FEF231   [8]  FF FF FF FF FF FF FF FF
  can1  0CF00331   [8]  FF FF FF FF FF FF FF FF
  can1  0CF00203   [8]  C1 FB 02 FF F7 DF 09 03
  can1  0CF00A00   [8]  00 00 23 11 FF FF FF FF
  can1  0CF00C03   [8]  41 06 F8 28 FF FF FF FF
  can1  18FD9400   [8]  00 00 FF FF FF FF FF FF
  can1  18FEFC00   [8]  FF FF FF FF FF FF FF FF
  can1  18F00E00   [8]  CE 3F FF FF D5 9F FF FF
  can1  18FD2000   [8]  16 42 FF FF FF FF FF FF
  can1  18FEBF0B   [8]  60 03 7D 7D 7F 7F FF FF
  can1  0C010305   [8]  FF FF FF FF FF F3 FF FF
  can1  18F03300   [8]  FF FF FF FF FF FF FF FF
  can1  18FEDF00   [8]  8D A0 28 7D 7D FF FF F1
  can1  0CF00203   [8]  C1 0C 03 FF F7 22 0A 03
  can1  18FEE000   [8]  25 92 00 00 6E FB 34 00
  can1  0CF00300   [8]  D0 96 3C FF FF 4F 7F 86
  can1  18FEF200   [8]  37 01 5C 00 78 09 E1 FF
  can1  18F00F00   [8]  FF FF FF FF FF FF FF FF
  can1  0CF00400   [8]  28 B3 B0 45 29 00 0F B0
  can1  0CF00203   [8]  C1 0C 03 FF F7 22 0A 03
  can1  0CF00C03   [8]  3F 06 4F 29 FF FF FF FF
  can1  18F00503   [8]  7E 1E 0C 7E 35 20 31 43
  can1  18FE4A03   [8]  03 0F 4F FF FF F3 FF FF
  can1  18FEDF00   [8]  8D A0 28 7D 7D FF FF F1
  can1  10FCFD00   [8]  FF FF FF FF 5C 80 FF FF
  can1  0CF00203   [8]  C1 2A 03 FF F7 6D 0A 03
  can1  18FD3E00   [8]  76 3A FF C6 34 FF FF FF
  can1  0CF00300   [8]  D0 96 3C FF FF 4F 80 86
  can1  18F00100   [8]  FF FF FF FF FF FF FF FF
  can1  0CF00400   [8]  38 B3 B0 78 29 00 0F B0
  can1  0CF00203   [8]  C1 2A 03 FF F7 6D 0A 03
  can1  0CF00C03   [8]  3A 06 A0 29 FF FF FF FF
  can1  0CF00331   [8]  FF FF FF FF FF FF FF FF
  can1  18FEDF00   [8]  8D A0 28 7D 7D FF FF F1
  can1  0CF00203   [8]  C1 3D 03 FF F7 AC 0A 03
  can1  18FD4000   [8]  FF 3F 00 FF FF FF FF FF
  can1  0CF00300   [8]  D0 96 3C FF FF 4F 80 85
  can1  0CF00A00   [8]  00 00 A6 11 FF FF FF FF
  can1  18FEF000   [8]  FF FF FF 64 29 FF FF FF
  can1  18F00E00   [8]  42 41 FF FF D5 9F FF FF
  can1  18FECA00   [8]  03 FF 00 00 00 00 FF FF
  can1  18F03300   [8]  FF FF FF FF FF FF FF FF
  can1  0C010305   [8]  FF FF FF FF FF F3 FF FF
  can1  0CF00400   [8]  38 B3 B0 D2 29 00 0F B0
  can1  0CF00203   [8]  C1 3D 03 FF F7 AC 0A 03
  can1  18FCF200   [8]  E1 FF FF FF FF FF FF FF
  can1  0CF00C03   [8]  36 06 B3 29 FF FF FF FF
  can1  18FEDF00   [8]  8C A0 28 7D 7D FF FF F1
  can1  18F00F00   [8]  FF FF FF FF FF FF FF FF
  can1  0CF00203   [8]  C1 53 03 FF F7 E6 0A 03
  can1  0CF00300   [8]  D0 96 3C FF FF 4F 80 85
  can1  18FEF100   [8]  FF 50 03 FC FF 44 00 CF
  can1  18FCC500   [8]  76 3A FF FF FF FF FF FF
  can1  0CFD9200   [8]  F4 FF FF FF FF FF FF FF
  can1  0CF00400   [8]  38 B3 B0 13 2A 00 0F B0
  can1  0CF00203   [8]  C1 53 03 FF F7 E6 0A 03
  can1  10FDA300   [8]  FF FF 29 FF FF FF FF FF
  can1  0CF00C03   [8]  33 06 1D 2A FF FF FF FF
  can1  18F00029   [8]  F0 7D 7D F3 29 FF FF 39
  can1  18FEDF00   [8]  8C A0 28 7D 7D FF FF F1
  can1  0CF00203   [8]  C1 69 03 FF F7 21 0B 03
  can1  18FCDC00   [8]  9F FF FF FF E0 44 50 03
  can1  0CF00300   [8]  D0 97 3C FF FF 4F 80 85
  can1  1CFE9200   [8]  FF 74 D7 FF FF FF 6E 00
  can1  18F00131   [8]  FF FF FF 3F 00 FF FF FF
  can1  18FEF131   [8]  F3 FF FF C3 CC FF FF F0
  can1  18FEF031   [8]  FF FF FF FF FF FC CC FF
  can1  18FF4831   [8]  00 00 FF FF 00 00 00 00
  can1  18F0010B   [8]  CF FF F0 FF FF CD FF FF
  can1  18FEF231   [8]  FF FF FF FF FF FF FF FF
  can1  0CF00400   [8]  38 B4 B0 4A 2A 00 0F B0
  can1  0CF00331   [8]  FF FF FF FF FF FF FF FF
  can1  0CF00203   [8]  C1 69 03 FF F7 21 0B 03
  can1  0CF00A00   [8]  00 00 2A 12 FF FF FF FF
  can1  0CF00C03   [8]  30 06 4F 2A FF FF FF FF
  can1  18FD9400   [8]  00 00 FF FF FF FF FF FF
  can1  18FEEF00   [8]  FF FF FF 3C 7B 7D FF FA
  can1  18F00E00   [8]  E2 41 FF FF D5 9F FF FF
  can1  18F03300   [8]  FF FF FF FF FF FF FF FF
  can1  18FEDF00   [8]  8C A0 28 7D 7D FF FF F1
  can1  0C010305   [8]  FF FF FF FF FF F3 FF FF
  can1  18FEBF0B   [8]  E0 03 7D 7D 7F 7F FF FF
  can1  0CF00203   [8]  C1 7E 03 FF F7 72 0B 03
  can1  18FEE000   [8]  25 92 00 00 6E FB 34 00
  can1  0CF00300   [8]  D0 98 3C FF FF 4F 80 85
  can1  18FEF200   [8]  1B 01 71 00 78 09 E1 FF
  can1  18F00F00   [8]  FF FF FF FF FF FF FF FF
  can1  0CF00400   [8]  38 B4 B0 78 2A 00 0F B0
  can1  0CF00203   [8]  C1 7E 03 FF F7 72 0B 03
  can1  18FEDB00   [8]  FF FF 60 75 FF FF FF FF
  can1  0CF00C03   [8]  2B 06 75 2A FF FF FF FF
  can1  18F00503   [8]  7E 1E 0C 7E 35 20 31 43
  can1  18FE4A03   [8]  03 0F 4F FF FF F3 FF FF
  can1  18FEDF00   [8]  8C A0 28 7D 7D FF FF F1
  can1  10FCFD00   [8]  FF FF FF FF 06 81 FF FF
  can1  0CF00203   [8]  C1 92 03 FF F7 A4 0B 03
  can1  0CF00300   [8]  D0 9B 3C FF FF 4F 80 85
  can1  18F00100   [8]  FF FF FF FF FF FF FF FF
  can1  0CF00400   [8]  28 B5 B0 C1 2A 00 0F B0
  can1  0CF00203   [8]  C1 92 03 FF F7 A4 0B 03
  can1  18FEF600   [8]  FF 05 62 FF FF FF FF FF
  can1  0CF00C03   [8]  28 06 D3 2A FF FF FF FF
  can1  0CF00331   [8]  FF FF FF FF FF FF FF FF
  can1  18FEDF00   [8]  8C A0 28 7D 7D FF FF F1
  can1  0CF00203   [8]  C1 A6 03 FF F7 E2 0B 03
  can1  0CF00300   [8]  D0 9E 3C FF FF 4F 80 85
  can1  0CF00A00   [8]  00 00 9A 12 FF FF FF FF
  can1  18FEF000   [8]  FF FF FF 90 2A FF FF FF
  can1  18F00E00   [8]  0C 43 FF FF D5 9F FF FF
  can1  18F03300   [8]  FF FF FF FF FF FF FF FF
  can1  0C010305   [8]  FF FF FF FF FF F3 FF FF
  can1  0CF00400   [8]  08 B6 B0 FD 2A 00 0F B0
  can1  0CF00203   [8]  C1 A6 03 FF F7 E2 0B 03
  can1  18FCF200   [8]  E1 FF FF FF FF FF FF FF
  can1  0CF00C03   [8]  25 06 F9 2A FF FF FF FF
  can1  18FEDF00   [8]  8C A0 28 7D 7D FF FF F1
  can1  18FDC600   [8]  FC 04 FF FF FF FF FF FF
  can1  18F00F00   [8]  FF FF FF FF FF FF FF FF
  can1  0CF00203   [8]  C1 C4 03 FF F7 1F 0C 03
  can1  0CF00300   [8]  D0 A1 3C FF FF 4F 7F 85
  can1  18FEF100   [8]  FF B0 03 FC FF 44 00 CF
  can1  0CF00400   [8]  68 B7 AF 38 2B 00 0F B0
  can1  0CF00203   [8]  C1 C4 03 FF F7 1F 0C 03
  can1  10FDA300   [8]  FF FF 30 FF FF FF FF FF
  can1  0CF00C03   [8]  21 06 52 2B FF FF FF FF
  can1  18F00029   [8]  F0 7D 7D F3 29 FF FF 38
  can1  18FEDF00   [8]  8C A0 28 7D 7D FF FF F1
  can1  1CECFF00   [8]  20 22 00 05 FF E3 FE 00
  can1  0CF00203   [8]  C1 CF 03 FF F7 6A 0C 03
  can1  18FCDC00   [8]  9F FF FF FF E0 44 B0 03
  can1  0CF00300   [8]  D0 A2 3C FF FF 4F 7E 85
  can1  1CFE9200   [8]  FF 38 D1 FF FF FF 70 00
  can1  18F00131   [8]  FF FF FF 3F 00 FF FF FF
  can1  18FEF131   [8]  F3 FF FF C3 CC FF FF F0
  can1  18FEF031   [8]  FF FF FF FF FF FC CC FF
  can1  18FF4831   [8]  00 00 FF FF 00 00 00 00
  can1  18F0010B   [8]  CF FF F0 FF FF CD FF FF
  can1  0CF00400   [8]  58 B7 AF 9E 2B 00 0F B0
  can1  18FEF231   [8]  FF FF FF FF FF FF FF FF
  can1  0CF00331   [8]  FF FF FF FF FF FF FF FF
  can1  0CF00203   [8]  C1 CF 03 FF F7 6A 0C 03
  can1  0CF00A00   [8]  00 00 39 13 FF FF FF FF
  can1  0CF00C03   [8]  1E 06 B4 2B FF FF FF FF
  can1  18FD9400   [8]  00 00 FF FF FF FF FF FF
  can1  18F00E00   [8]  00 54 FF FF D5 9F FF FF
  can1  18F03300   [8]  FF FF FF FF FF FF FF FF
  can1  18FEDF00   [8]  8C A0 28 7D 7D FF FF F1
  can1  0C010305   [8]  FF FF FF FF FF F3 FF FF
  can1  18FEBF0B   [8]  60 04 7D 7D 81 7F FF FF
  can1  0CF00203   [8]  C1 EC 03 FF F7 CD 0C 03
  can1  18FEE000   [8]  25 92 00 00 6E FB 34 00
  can1  0CF00300   [8]  D0 A3 3C FF FF 4F 7E 85
  can1  18FEF200   [8]  51 01 6F 00 79 09 E1 FF
  can1  18F00F00   [8]  FF FF FF FF FF FF FF FF
  can1  0CF00400   [8]  58 B7 AF E1 2B 00 0F B0
  can1  0CF00203   [8]  C1 EC 03 FF F7 CD 0C 03
  can1  0CF00C03   [8]  19 06 DE 2B FF FF FF FF
  can1  18F00503   [8]  7E 1E 0C 7E 35 20 31 43
  can1  18FE4A03   [8]  03 0F 4F FF FF F3 FF FF
  can1  18FEDF00   [8]  8C A0 28 7D 7D FF FF F1
  can1  10FCFD00   [8]  FF FF FF FF B9 81 FF FF
  can1  0CF00203   [8]  C1 07 04 FF F7 06 0D 03
  can1  0CF00300   [8]  D0 A5 3C FF FF 4F 7E 84
  can1  18F00100   [8]  FF FF FF FF FF FF FF FF
  can1  0CF00400   [8]  48 B8 AF 43 2C 00 0F B0
  can1  1CEBFF00   [8]  01 00 19 B3 30 52 C2 E8
  can1  0CF00203   [8]  C1 07 04 FF F7 06 0D 03
  can1  0CF00C03   [8]  15 06 59 2C FF FF FF FF
  can1  0CF00331   [8]  FF FF FF FF FF FF FF FF
  can1  18FEDF00   [8]  8B A0 28 7D 7D FF FF F1
  can1  0CF00203   [8]  C1 24 04 FF F7 54 0D 03
  can1  0CF00300   [8]  D0 A7 3C FF FF 4F 7E 84
  can1  0CF00A00   [8]  00 00 FE 13 FF FF FF FF
  can1  18FEF000   [8]  FF FF FF C0 2B FF FF FF
  can1  18F00E00   [8]  94 4C FF FF D5 9F FF FF
  can1  18F03300   [8]  FF FF FF FF FF FF FF FF
  can1  0C010305   [8]  FF FF FF FF FF F3 FF FF
  can1  0CF00400   [8]  48 B8 AF B1 2C 00 0F B0
  can1  0CF00203   [8]  C1 24 04 FF F7 54 0D 03
  can1  18FCF200   [8]  E1 FF FF FF FF FF FF FF
  can1  0CF00C03   [8]  11 06 B6 2C FF FF FF FF
  can1  18FEDF00   [8]  8B A0 28 7D 7D FF FF F1
  can1  18F00F00   [8]  FF FF FF FF FF FF FF FF
  can1  0CF00203   [8]  C1 3A 04 FF F7 A9 0D 03
  can1  0CF00300   [8]  D0 A9 3D FF FF 4F 7E 83
  can1  18FEF100   [8]  FF 48 04 FC FF 44 00 CF
  can1  0CF00400   [8]  48 B8 AF 29 2D 00 0F B0
  can1  0CF00203   [8]  C1 3A 04 FF F7 A9 0D 03
  can1  10FDA300   [8]  FF FF 2B FF FF FF FF FF
  can1  0CF00C03   [8]  0D 06 1A 2D FF FF FF FF
  can1  18F00029   [8]  F0 7D 7D F3 29 FF FF 38
  can1  18FEDF00   [8]  8A A0 28 7D 7D FF FF F1
  can1  0CF00203   [8]  C1 55 04 FF F7 02 0E 03
  can1  18FCDC00   [8]  9F FF FF FF E0 44 48 04
  can1  0CF00300   [8]  D0 AA 3D FF FF 4F 7E 83
  can1  1CFE9200   [8]  FF B0 C0 FF FF FF 76 00
  can1  1CEBFF00   [8]  02 1C B9 60 22 C7 C0 44
  can1  18F00131   [8]  FF FF FF 3F 00 FF FF FF
  can1  18FEF131   [8]  F3 FF FF C3 CC FF FF F0
  can1  18FEF031   [8]  FF FF FF FF FF FC CC FF
  can1  18FF4831   [8]  00 00 FF FF 00 00 00 00
  can1  18FEF231   [8]  FF FF FF FF FF FF FF FF
  can1  0CF00400   [8]  48 B9 AF 69 2D 00 0F AF
  can1  0CF00331   [8]  FF FF FF FF FF FF FF FF
  can1  18F0010B   [8]  CF FF F0 FF FF CD FF FF
  can1  0CF00203   [8]  C1 55 04 FF F7 02 0E 03
  can1  0CF00A00   [8]  00 00 05 15 FF FF FF FF
  can1  0CF00C03   [8]  0A 06 83 2D FF FF FF FF
  can1  18FD9400   [8]  00 00 FF FF FF FF FF FF
  can1  18F00E00   [8]  60 47 FF FF D5 9F FF FF
  can1  18F03300   [8]  FF FF FF FF FF FF FF FF
  can1  18FEDF00   [8]  8A A0 28 7D 7D FF FF F1
  can1  0C010305   [8]  FF FF FF FF FF F3 FF FF
  can1  18FEBF0B   [8]  E0 04 7D 7D 81 7F FF FF
  can1  0CF00203   [8]  C1 72 04 FF F7 59 0E 03
  can1  18FEE000   [8]  25 92 00 00 6E FB 34 00
  can1  0CF00300   [8]  D0 AC 3D FF FF 4F 7E 83
  can1  18FEF200   [8]  51 01 7B 00 78 09 E1 FF
  can1  18F00F00   [8]  FF FF FF FF FF FF FF FF
  can1  0CF00400   [8]  38 B9 AF D9 2D 00 0F AF
  can1  0CF00203   [8]  C1 72 04 FF F7 59 0E 03
  can1  0CF00C03   [8]  05 06 D2 2D FF FF FF FF
  can1  18F00503   [8]  7E 1E 0C 7E 35 20 31 43
  can1  18FE4A03   [8]  03 0F 4F FF FF F3 FF FF
  can1  18FEDF00   [8]  8A A0 28 7D 7D FF FF F1
  can1  10FCFD00   [8]  FF FF FF FF C6 82 FF FF
  can1  0CFD9200   [8]  F4 FF FF FF FF FF FF FF
  can1  0CF00203   [8]  C1 8E 04 FF F7 B1 0E 03
  can1  0CF00300   [8]  D0 AD 3D FF FF 4F 7E 83
  can1  18F00100   [8]  FF FF FF FF FF FF FF FF
  can1  0CF00400   [8]  38 B9 AF 4A 2E 00 0F AF
  can1  0CF00203   [8]  C1 8E 04 FF F7 B1 0E 03
  can1  0CF00C03   [8]  01 06 5B 2E FF FF FF FF
  can1  0CF00331   [8]  FF FF FF FF FF FF FF FF
  can1  18FEDF00   [8]  8A A0 28 7D 7D FF FF F1
  can1  1CEBFF00   [8]  03 CB 80 57 FF FF 55 04
  can1  0CF00203   [8]  C1 AB 04 FF F7 0D 0F 03
  can1  0CF00300   [8]  D0 AF 3D FF FF 4F 7D 82
  can1  0CF00A00   [8]  00 00 DC 15 FF FF FF FF
  can1  18FEF000   [8]  FF FF FF C0 2B FF FF FF
  can1  18F00E00   [8]  CC 45 FF FF D5 9F FF FF
  can1  18F03300   [8]  FF FF FF FF FF FF FF FF
  can1  0C010305   [8]  FF FF FF FF FF F3 FF FF
  can1  0CF00400   [8]  28 BA AF B4 2E 00 0F AF
  can1  0CF00203   [8]  C1 AB 04 FF F7 0D 0F 03
  can1  18FCF200   [8]  E1 FF FF FF FF FF FF FF
  can1  0CF00C03   [8]  FC 05 96 2E FF FF FF FF
  can1  18FEDF00   [8]  8A A0 28 7D 7D FF FF F1
  can1  18F00F00   [8]  FF FF FF FF FF FF FF FF
  can1  0CF00203   [8]  C1 C7 04 FF F7 6B 0F 03
  can1  18FD0700   [8]  03 0C FC FF FF FF FF FF
  can1  0CF00300   [8]  D0 B3 3D FF FF 4F 7D 83
  can1  18FEF100   [8]  FF B8 04 FC FF 44 00 CF
  can1  0CF00400   [8]  18 BC AF CC 2E 00 0F AF
  can1  0CF00203   [8]  C1 C7 04 FF F7 6B 0F 03
  can1  10FDA300   [8]  FF FF 2E FF FF FF FF FF
  can1  0CF00C03   [8]  F9 05 F7 2E FF FF FF FF
  can1  18F00029   [8]  F0 7D 7D F3 29 FF FF 37
  can1  18FEDF00   [8]  8A A0 28 7D 7D FF FF F1
  can1  0CF00203   [8]  C1 E2 04 FF F7 BB 0F 03
  can1  18FCDC00   [8]  9F FF FF FF E0 44 B8 04
  can1  0CF00300   [8]  D0 B8 3D FF FF 4F 7D 83
  can1  1CFE9200   [8]  FF 60 C0 FF FF FF 80 00
  can1  18F00131   [8]  FF FF FF 3F 00 FF FF FF
  can1  18FEF131   [8]  F3 FF FF C3 CC FF FF F0
  can1  18FEF031   [8]  FF FF FF FF FF FC CC FF
  can1  18FF4831   [8]  00 00 FF FF 00 00 00 00
  can1  18FEF231   [8]  FF FF FF FF FF FF FF FF
  can1  0CF00400   [8]  78 BE AE 20 2F 00 0F AF
  can1  0CF00331   [8]  FF FF FF FF FF FF FF FF
  can1  18F0010B   [8]  CF FF F0 FF FF CD FF FF
  can1  0CF00203   [8]  C1 E2 04 FF F7 BB 0F 03
  can1  14FC9800   [8]  FF 00 00 00 00 00 00 FF
  can1  0CF00C03   [8]  F4 05 1A 2F FF FF FF FF
  can1  0CF00A00   [8]  00 00 A1 16 FF FF FF FF
  can1  18FD9400   [8]  00 00 FF FF FF FF FF FF
  can1  18F00E00   [8]  DA 2D FF FF D5 9F FF FF
  can1  1CEBFF00   [8]  04 38 5E 14 46 FA 7D C7
  can1  18F03300   [8]  FF FF FF FF FF FF FF FF
  can1  18FEDF00   [8]  8A A0 28 7D 7D FF FF F1
  can1  0C010305   [8]  FF FF FF FF FF F3 FF FF
  can1  18FEBF0B   [8]  80 05 7D 7D 81 81 FF FF
  can1  0CF00203   [8]  C1 FC 04 FF F7 F9 0F 03
  can1  18FEE000   [8]  25 92 00 00 6E FB 34 00
  can1  0CF00300   [8]  D0 BD 3C FF FF 4F 7C 83
  can1  18FDB400   [8]  16 42 AC 3F FF FF FF FF
  can1  18FEF200   [8]  51 01 8F 00 78 09 E1 FF
  can1  18F00F00   [8]  FF FF FF FF FF FF FF FF
  can1  0CF00400   [8]  68 C0 AE 82 2F 00 0F AF
  can1  0CF00203   [8]  C1 FC 04 FF F7 F9 0F 03
  can1  0CF00C03   [8]  F2 05 91 2F FF FF FF FF
  can1  18F00503   [8]  7E 1E 0C 7E 35 20 31 43
  can1  18FE4A03   [8]  03 0F 4F FF FF F3 FF FF
  can1  18FEDF00   [8]  8A A0 28 7D 7D FF FF F1
  can1  10FCFD00   [8]  FF FF FF FF B9 83 FF FF
  can1  0CF00203   [8]  C1 12 05 FF F7 2F 10 03
  can1  0CF00300   [8]  D0 C2 3C FF FF 4F 7C 83
  can1  18F00100   [8]  FF FF FF FF FF FF FF FF
  can1  0CF00400   [8]  68 C2 AE DF 2F 00 0F AF
  can1  0CF00203   [8]  C1 12 05 FF F7 2F 10 03
  can1  18FDB300   [8]  FF FF 69 3E FF FF FF FF
  can1  0CF00C03   [8]  EF 05 C2 2F FF FF FF FF
  can1  0CF00331   [8]  FF FF FF FF FF FF FF FF
  can1  18FEDF00   [8]  8A A0 28 7D 7D FF FF F1
  can1  0CF00203   [8]  C1 31 05 FF F7 6E 10 03
  can1  0CF00300   [8]  D0 C6 3C FF FF 4F 7C 83
  can1  0CF00A00   [8]  00 00 41 17 FF FF FF FF
  can1  18FEF000   [8]  FF FF FF C0 2B FF FF FF
  can1  18F00E00   [8]  0E 40 FF FF D5 9F FF FF
  can1  18F03300   [8]  FF FF FF FF FF FF FF FF
  can1  0C010305   [8]  FF FF FF FF FF F3 FF FF
  can1  0CF00400   [8]  68 C4 AE E6 2F 00 0F AF
  can1  1CEBFF00   [8]  05 80 57 86 00 F7 02 FF
  can1  0CF00203   [8]  C1 31 05 FF F7 6E 10 03
  can1  18FDB200   [8]  FF FF FF FF 0E 00 FF FF
  can1  0CF00C03   [8]  EE 05 FE 2F FF FF FF FF
  can1  18FCF200   [8]  E1 FF FF FF FF FF FF FF
  can1  18FEDF00   [8]  8A A0 28 7D 7D FF FF F1
  can1  18F00F00   [8]  FF FF FF FF FF FF FF FF
  can1  0CF00203   [8]  C1 46 05 FF F7 BD 10 03
  can1  0CF00300   [8]  D0 CB 3C FF FF 4F 7C 83
  can1  18FEF100   [8]  FF 70 05 FC FF 44 00 CF
  can1  0CF00400   [8]  68 C5 AE 41 30 00 0F AF
  can1  0CF00203   [8]  C1 46 05 FF F7 BD 10 03
  can1  10FDA300   [8]  FF FF 37 FF FF FF FF FF
  can1  0CF00C03   [8]  E9 05 41 30 FF FF FF FF
  can1  18F00029   [8]  F0 7D 7D F3 29 FF FF 36
  can1  18FD8C00   [8]  FF FF 09 00 FF FF FF FF
  can1  18FEDF00   [8]  8A A0 28 7D 7D FF FF F1
  can1  0CF00203   [8]  C1 5B 05 FF F7 15 11 03
  can1  18FCDC00   [8]  9F FF FF FF E0 44 70 05
  can1  0CF00300   [8]  D0 CE 3C FF FF 4F 7C 83
  can1  1CFE9200   [8]  FF 8C BE FF FF FF 80 00
  can1  18F00131   [8]  FF FF FF 3F 00 FF FF FF
  can1  18E0FF31   [8]  00 FF FF FF FF F0 FF FF
  can1  18FEF131   [8]  F3 FF FF C3 CC FF FF F0
  can1  18FEF031   [8]  FF FF FF FF FF FC CC FF
  can1  18FEFC31   [8]  FF AA FF FF FF FF 00 FF
  can1  18F0010B   [8]  CF FF F0 FF FF CD FF FF
  can1  0CF00400   [8]  68 C7 AE A4 30 00 0F AF
  can1  18FEAE31   [8]  FF FF 61 62 FF FF FF FF
  can1  18FEF731   [8]  FF FF FF FF 19 01 FF FF
  can1  18FF4831   [8]  00 00 FF FF 00 00 00 00
  can1  18FD8331   [8]  F8 FF FF FF FF FF FF FF
  can1  0CF00203   [8]  C1 5B 05 FF F7 15 11 03
  can1  0CF00A00   [8]  00 00 22 18 FF FF FF FF
  can1  0CF00C03   [8]  E5 05 A7 30 FF FF FF FF
  can1  18FD9400   [8]  00 00 FF FF FF FF FF FF
  can1  18F00E00   [8]  AC 3F FF FF D5 9F FF FF
  can1  18FEF831   [8]  FF FF FF FF FF FF FF FF
  can1  18FEF231   [8]  FF FF FF FF FF FF FF FF
  can1  18FEFA31   [8]  FF C3 C3 FF FF FF FF FF
  can1  18FEC131   [8]  CA 8D 2C 05 FF FF FF FF
  can1  0CF00331   [8]  FF FF FF FF FF FF FF FF
  can1  18FD2000   [8]  16 42 FF FF FF FF FF FF
  can1  0C010305   [8]  FF FF FF FF FF F3 FF FF
  can1  18F03300   [8]  FF FF FF FF FF FF FF FF
  can1  18FEBF0B   [8]  20 06 7D 7D 81 7F FF FF
  can1  18FEDF00   [8]  8A A0 28 7D 7D FF FF F1
  can1  0CF00203   [8]  C1 7D 05 FF F7 86 11 03
  can1  18FEE000   [8]  25 92 00 00 6E FB 34 00
  can1  0CF00300   [8]  D0 CF 3C FF FF 4F 7C 82
  can1  18FEF200   [8]  51 01 9D 00 79 09 E1 FF
  can1  18F00F00   [8]  FF FF FF FF FF FF FF FF
  can1  0CF00400   [8]  08 C7 AF F7 30 00 0F AF
  can1  0CF00203   [8]  C1 7D 05 FF F7 86 11 03
  can1  0CF00C03   [8]  E0 05 F5 30 FF FF FF FF
  can1  18F00503   [8]  7E 1E 0C 7E 35 20 31 43
  can1  18FE4A03   [8]  03 0F 4F FF FF F3 FF FF
  can1  18FD9503   [8]  CC FF FF B3 FF FF FF FF
  can1  18FEF803   [8]  FF FF FF FF 39 2D FF FF
  can1  18FEDF00   [8]  8A A0 28 7D 7D FF FF F1
  can1  10FCFD00   [8]  FF FF FF FF 93 84 FF FF
  can1  0CF00203   [8]  C1 9A 05 FF F7 E0 11 03
  can1  18FD3E00   [8]  76 3A FF CC 34 FF FF FF
  can1  0CF00300   [8]  D0 D1 3C FF FF 4F 7D 82
  can1  18F00100   [8]  FF FF FF FF FF FF FF FF
  can1  0CF00400   [8]  18 C7 AF 11 31 00 0F AF
  can1  0CF00203   [8]  C1 9A 05 FF F7 E0 11 03
  can1  0CF00C03   [8]  DB 05 0A 31 FF FF FF FF
  can1  0CF00331   [8]  FF FF FF FF FF FF FF FF
  can1  18FEDF00   [8]  8A A0 28 7D 7D FF FF F1
  can1  0CF00203   [8]  C1 BD 05 FF F7 59 12 03
  can1  18FD4000   [8]  FF 3F 00 FF FF FF FF FF
  can1  18FECA03   [8]  00 FF 00 00 00 00 FF FF
  can1  0CF00300   [8]  D0 D2 3D FF FF 4F 7D 82
  can1  0CF00A00   [8]  00 00 F0 18 FF FF FF FF
  can1  18FEF000   [8]  FF FF FF C0 2B FF FF FF
  can1  18F00E00   [8]  76 3F FF FF D5 9F FF FF
  can1  18F03300   [8]  FF FF FF FF FF FF FF FF
  can1  0C010305   [8]  FF FF FF FF FF F3 FF FF
  can1  0CF00400   [8]  18 C8 AF 55 31 00 0F AF
  can1  0CF00203   [8]  C1 BD 05 FF F7 59 12 03
  can1  18FCF200   [8]  E1 FF FF FF FF FF FF FF
  can1  0CF00C03   [8]  D4 05 64 31 FF FF FF FF
  can1  18FEDF00   [8]  8A A0 28 7D 7D FF FF F1
  can1  18F00F00   [8]  FF FF FF FF FF FF FF FF
  can1  0CF00203   [8]  C1 E2 05 FF F7 C1 12 03
  can1  0CF00300   [8]  D0 D4 3D FF FF 4F 7D 82
  can1  18FEF100   [8]  FF E4 05 FC FF 44 00 CF
  can1  18FCC500   [8]  76 3A FF FF FF FF FF FF
  can1  0CFD9200   [8]  F4 FF FF FF FF FF FF FF
  can1  0CF00400   [8]  28 C9 AF 40 31 00 0F AF
  can1  0CF00203   [8]  C1 E2 05 FF F7 C1 12 03
  can1  10FDA300   [8]  FF FF 2D FF FF FF FF FF
  can1  0CF00C03   [8]  CE 05 59 31 FF FF FF FF
  can1  18F00029   [8]  F0 7D 7D F3 29 FF FF 36
  can1  18FEDF00   [8]  8A A0 28 7D 7D FF FF F1
  can1  0CF00203   [8]  C1 03 06 FF F7 05 13 03
  can1  18FCDC00   [8]  9F FF FF FF E0 44 E4 05
  can1  0CF00300   [8]  D0 D6 3D FF FF 4F 7D 82
  can1  1CFE9200   [8]  FF 20 BC FF FF FF 86 00
  can1  18F00131   [8]  FF FF FF 3F 00 FF FF FF
  can1  18FEF131   [8]  F3 FF FF C3 CC FF FF F0
  can1  18FEF031   [8]  FF FF FF FF FF FC CC FF
  can1  18FF4831   [8]  00 00 FF FF 00 00 00 00
  can1  18FEF231   [8]  FF FF FF FF FF FF FF FF
  can1  0CF00400   [8]  38 C9 AF 90 31 00 0F AF
  can1  0CF00331   [8]  FF FF FF FF FF FF FF FF
  can1  18F0010B   [8]  CF FF F0 FF FF CD FF FF
  can1  0CF00203   [8]  C1 03 06 FF F7 05 13 03
  can1  0CF00A00   [8]  00 00 99 19 FF FF FF FF
  can1  0CF00C03   [8]  CA 05 86 31 FF FF FF FF
  can1  18FD9400   [8]  00 00 FF FF FF FF FF FF
  can1  18FEEF00   [8]  FF FF FF 49 7E 7D FF FA
  can1  18F00E00   [8]  36 3F FF FF D5 9F FF FF
  can1  18FECA31   [8]  00 FF 00 00 00 00 FF FF
  can1  18F03300   [8]  FF FF FF FF FF FF FF FF
  can1  18FEDF00   [8]  8A A0 28 7D 7D FF FF F1
  can1  0C010305   [8]  FF FF FF FF FF F3 FF FF
  can1  18FEBF0B   [8]  C0 06 7D 7D 81 81 FF FF
  can1  0CF00203   [8]  C1 1D 06 FF F7 27 13 03
  can1  18FEE000   [8]  25 92 00 00 6E FB 34 00
  can1  0CF00300   [8]  D0 D8 3D FF FF 4F 7D 82
  can1  18FEF200   [8]  82 01 9C 00 78 09 E1 FF
  can1  18F00F00   [8]  FF FF FF FF FF FF FF FF
  can1  0CF00400   [8]  48 CA AF AB 31 00 0F AF
  can1  0CF00203   [8]  C1 1D 06 FF F7 27 13 03
  can1  18FEDB00   [8]  FF FF C0 7B FF FF FF FF
  can1  0CF00C03   [8]  C8 05 9A 31 FF FF FF FF
  can1  18F00503   [8]  7E 1E 0C 7E 35 20 31 43
  can1  18FE4A03   [8]  03 0F 4F FF FF F3 FF FF
  can1  18FEDF00   [8]  8A A0 28 7D 7D FF FF F1
  can1  10FCFD00   [8]  FF FF FF FF 00 85 FF FF
  can1  0CF00203   [8]  C1 2B 06 FF F7 48 13 03
  can1  0CF00300   [8]  D0 DA 3D FF FF 4F 7E 82
  can1  18F00100   [8]  FF FF FF FF FF FF FF FF
  can1  0CF00400   [8]  58 CB AF B9 31 00 0F B0
  can1  0CF00203   [8]  C1 2B 06 FF F7 48 13 03
  can1  18FEF600   [8]  FF 0D 62 FF FF FF FF FF
  can1  0CF00C03   [8]  C8 05 A1 31 FF FF FF FF
  can1  0CF00331   [8]  FF FF FF FF FF FF FF FF
  can1  18FEDF00   [8]  8A A0 28 7D 7D FF FF F1
  can1  0CF00203   [8]  C1 37 06 FF F7 7D 13 03
  can1  0CF00300   [8]  D0 DD 3D FF FF 4F 7E 82
  can1  0CF00A00   [8]  00 00 00 1A FF FF FF FF
  can1  18FEF000   [8]  FF FF FF C0 2B FF FF FF
  can1  18F00E00   [8]  0A 3F FF FF D5 9F FF FF
  can1  18F11031   [8]  00 00 FF FF FF FF FF FF
  can1  18F03300   [8]  FF FF FF FF FF FF FF FF
  can1  0C010305   [8]  FF FF FF FF FF F3 FF FF
  can1  0CF00400   [8]  68 CD AF E2 31 00 0F B0
  can1  0CF00203   [8]  C1 37 06 FF F7 7D 13 03
  can1  18FCF200   [8]  E1 FF FF FF FF FF FF FF
  can1  0CF00C03   [8]  C4 05 FF 31 FF FF FF FF
  can1  18FEDF00   [8]  8B A0 28 7D 7D FF FF F1
  can1  18FDC600   [8]  FC 04 FF FF FF FF FF FF
  can1  18F00F00   [8]  FF FF FF FF FF FF FF FF
  can1  0CF00203   [8]  C1 49 06 FF F7 CE 13 03
  can1  0CF00300   [8]  D0 E1 3D FF FF 4F 7E 83
  can1  18FEF100   [8]  FF A8 06 FC FF 44 00 CF
  can1  0CF00400   [8]  08 CF B0 EC 31 00 0F B0
  can1  0CF00203   [8]  C1 49 06 FF F7 CE 13 03
  can1  10FDA300   [8]  FF FF 30 FF FF FF FF FF
  can1  0CF00C03   [8]  C0 05 EA 31 FF FF FF FF
  can1  18F00029   [8]  F0 7D 7D F3 29 FF FF 35
  can1  18FEDF00   [8]  8B A0 28 7D 7D FF FF F1
  can1  0CF00203   [8]  C1 5B 06 FF F7 43 14 03
  can1  18FCDC00   [8]  9F FF FF FF E0 44 A8 06
  can1  0CF00300   [8]  D0 E6 3D FF FF 4F 7F 83
  can1  1CFE9200   [8]  FF CC C4 FF FF FF 88 00
  can1  18F00131   [8]  FF FF FF 3F 00 FF FF FF
  can1  18FEF131   [8]  F3 FF FF C3 CC FF FF F0
  can1  18FEF031   [8]  FF FF FF FF FF FC CC FF
  can1  18FF4831   [8]  00 00 FF FF 00 00 00 00
  can1  18FEF231   [8]  FF FF FF FF FF FF FF FF
  can1  0CF00331   [8]  FF FF FF FF FF FF FF FF
  can1  0CF00400   [8]  18 D1 B0 03 32 00 0F B0
  can1  18F0010B   [8]  CF FF F0 FF FF CD FF FF
  can1  0CF00203   [8]  C1 5B 06 FF F7 43 14 03
  can1  0CF00A00   [8]  00 00 96 1A FF FF FF FF
  can1  0CF00C03   [8]  B9 05 12 32 FF FF FF FF
  can1  18FD9400   [8]  00 00 FF FF FF FF FF FF
  can1  18F00E00   [8]  BE 3E FF FF D5 9F FF FF
  can1  18F03300   [8]  FF FF FF FF FF FF FF FF
  can1  18FEDF00   [8]  8B A0 28 7D 7D FF FF F1
  can1  0C010305   [8]  FF FF FF FF FF F3 FF FF
  can1  18FEBF0B   [8]  60 07 7D 7D 81 83 FF FF
  can1  0CF00203   [8]  C1 7C 06 FF F7 CD 14 03
  can1  18FEF700   [8]  FF FF FF FF 19 01 FF FF
  can1  18FEE000   [8]  25 92 00 00 6E FB 34 00
  can1  0CF00300   [8]  D0 EB 3D FF FF 4F 7F 83
  can1  18FEF200   [8]  82 01 AA 00 79 09 E1 FF
  can1  18F00F00   [8]  FF FF FF FF FF FF FF FF
  can1  0CF00400   [8]  18 D3 B0 22 32 00 0F B0
  can1  0CF00203   [8]  C1 7C 06 FF F7 CD 14 03
  can1  0CF00C03   [8]  B0 05 19 32 FF FF FF FF
  can1  18F00503   [8]  7E 1E 0C 7E 35 20 31 43
  can1  18FE4A03   [8]  03 0F 4F FF FF F3 FF FF
  can1  18FEDF00   [8]  8B A0 28 7D 7D FF FF F1
  can1  10FCFD00   [8]  FF FF FF FF 49 85 FF FF
  can1  0CF00203   [8]  C1 A0 06 FF F7 0C 15 03
  can1  18FEC100   [8]  CA 8D 2C 05 A6 45 0E 00
  can1  0CF00300   [8]  D0 EE 3D FF FF 4F 7F 83
  can1  18F00100   [8]  FF FF FF FF FF FF FF FF
  can1  0CF00400   [8]  18 D5 B0 4A 32 00 0F B0
  can1  0CF00203   [8]  C1 A0 06 FF F7 0C 15 03
  can1  0CF00C03   [8]  AC 05 31 32 FF FF FF FF
  can1  0CF00331   [8]  FF FF FF FF FF FF FF FF
  can1  18FEDF00   [8]  8B A0 28 7D 7D FF FF F1
  can1  0CF00203   [8]  C1 BC 06 FF F7 6D 15 03
  can1  0CF00300   [8]  D4 F2 3D FF FF 4F 7F 83
  can1  0CF00A00   [8]  00 00 10 1B FF FF FF FF
  can1  18FEF000   [8]  FF FF FF C0 2B FF FF FF
  can1  18F00E00   [8]  94 3E FF FF D5 9F FF FF
  can1  18FE5600   [8]  B7 3C FF FF 1F 1F 00 FF
  can1  18F03300   [8]  FF FF FF FF FF FF FF FF
  can1  0C010305   [8]  FF FF FF FF FF F3 FF FF
  can1  0CF00400   [8]  18 D6 B0 3D 32 00 0F B0
  can1  0CF00203   [8]  C1 BC 06 FF F7 6D 15 03
  can1  18FCF200   [8]  E1 FF FF FF FF FF FF FF
  can1  0CF00C03   [8]  A7 05 5F 32 FF FF FF FF
  can1  18FEDF00   [8]  8B A0 28 7D 7D FF FF F1
  can1  18F00F00   [8]  FF FF FF FF FF FF FF FF
  can1  0CF00203   [8]  C1 D8 06 FF F7 A5 15 03
  can1  0CF00300   [8]  D4 F5 3D FF FF 4F 7F 83
  can1  18FEF100   [8]  FF 18 07 FC FF 44 00 CF
  can1  18FD7B00   [8]  03 FF FC 5A 00 00 1F 2A
  can1  0CF00400   [8]  28 D8 B0 5E 32 00 0F B0
  can1  0CF00203   [8]  C1 D8 06 FF F7 A5 15 03
  can1  10FDA300   [8]  FF FF 33 FF FF FF FF FF
  can1  0CF00C03   [8]  A4 05 5A 32 FF FF FF FF
  can1  18F00029   [8]  F0 7D 7D F3 29 FF FF 35
  can1  18FEDF00   [8]  8B A0 28 7D 7D FF FF F1
  can1  0CF00203   [8]  C1 F3 06 FF F7 F2 15 03
  can1  18FCDC00   [8]  9F FF FF FF E0 44 18 07
  can1  0CF00300   [8]  D4 F7 3D FF FF 4F 80 83
  can1  1CFE9200   [8]  FF A4 C6 FF FF FF 88 00
  can1  18F00131   [8]  FF FF FF 3F 00 FF FF FF
  can1  18FEF131   [8]  F3 FF FF C3 CC FF FF F0
  can1  18FEF031   [8]  FF FF FF FF FF FC CC FF
  can1  18FF4831   [8]  00 00 FF FF 00 00 00 00
  can1  18FEF231   [8]  FF FF FF FF FF FF FF FF
  can1  0CF00331   [8]  FF FF FF FF FF FF FF FF
  can1  0CF00400   [8]  28 D8 B0 A0 32 00 0F B0
  can1  18F0010B   [8]  CF FF F0 FF FF CD FF FF
  can1  0CF00203   [8]  C1 F3 06 FF F7 F2 15 03
  can1  0CF00A00   [8]  00 00 B8 1B FF FF FF FF
  can1  0CF00C03   [8]  9F 05 A6 32 FF FF FF FF
  can1  18FD9400   [8]  00 00 FF FF FF FF FF FF
  can1  18FEDD00   [8]  FF 63 39 FF FF FF FF FF
  can1  18F00E00   [8]  7C 3E FF FF D5 9F FF FF
  can1  18F03300   [8]  FF FF FF FF FF FF FF FF
  can1  18FEDF00   [8]  8B A0 28 7D 7D FF FF F1
  can1  0C010305   [8]  FF FF FF FF FF F3 FF FF
  can1  18FEBF0B   [8]  00 08 7D 7D 81 7F FF FF
  can1  0CF00203   [8]  C1 0E 07 FF F7 71 16 03
  can1  18FEE000   [8]  25 92 00 00 6E FB 34 00
  can1  0CF00300   [8]  D4 F7 3D FF FF 4F 80 83
  can1  18FEF200   [8]  82 01 BC 00 78 09 E1 FF
  can1  18F00F00   [8]  FF FF FF FF FF FF FF FF
  can1  0CF00400   [8]  38 D8 B0 EF 32 00 0F B0
  can1  0CF00203   [8]  C1 0E 07 FF F7 71 16 03
  can1  18FEE400   [8]  FF 3F FC FC 00 7F FF FF
  can1  0CF00C03   [8]  99 05 D6 32 FF FF FF FF
  can1  18F00503   [8]  7E 1E 0C 7E 35 20 31 43
  can1  18FE4A03   [8]  03 0F 4F FF FF F3 FF FF
  can1  18FEDF00   [8]  8B A0 28 7D 7D FF FF F1
  can1  10FCFD00   [8]  FF FF FF FF AC 85 FF FF
  can1  0CFD9200   [8]  F4 FF FF FF FF FF FF FF
  can1  0CF00203   [8]  C1 2D 07 FF F7 CE 16 03
  can1  0CF00300   [8]  D4 F8 3D FF FF 4F 80 83
  can1  18F00100   [8]  FF FF FF FF FF FF FF FF
  can1  0CF00400   [8]  48 D9 B0 D4 32 00 0F B0
  can1  0CF00203   [8]  C1 2D 07 FF F7 CE 16 03
  can1  0CF00C03   [8]  94 05 C6 32 FF FF FF FF
  can1  0CF00331   [8]  FF FF FF FF FF FF FF FF
  can1  18FEDF00   [8]  8B A0 28 7D 7D FF FF F1
  can1  0CF00203   [8]  C1 67 07 FF F7 4E 17 03
  can1  0CF00300   [8]  D4 F8 3E FF FF 4F 80 83
  can1  0CF00A00   [8]  00 00 87 1C FF FF FF FF
  can1  18FEF000   [8]  FF FF FF C0 2B FF FF FF
  can1  18FEBD00   [8]  00 F0 FF FF FF FF FF FF
  can1  18F00E00   [8]  6C 3E FF FF D5 9F FF FF
  can1  18F03300   [8]  FF FF FF FF FF FF FF FF
  can1  0C010305   [8]  FF FF FF FF FF F3 FF FF
  can1  0CF00400   [8]  48 D9 B0 0A 33 00 0F B0
  can1  0CF00203   [8]  C1 67 07 FF F7 4E 17 03
  can1  18FCF200   [8]  E1 FF FF FF FF FF FF FF
  can1  0CF00C03   [8]  8C 05 1F 33 FF FF FF FF
  can1  18FEDF00   [8]  8B A0 28 7D 7D FF FF F1
  can1  18E0FF00   [8]  00 FF FF FF FF FF FF FF
  can1  18F00F00   [8]  FF FF FF FF FF FF FF FF
  can1  0CF00203   [8]  C1 8C 07 FF F7 A1 17 03
  can1  0CF00300   [8]  D4 F9 3E FF FF 4F 80 83
  can1  18FEF100   [8]  FF DC 07 FC FF 44 00 CF
  can1  18FEEE00   [8]  87 FF FF FF FF FF FF FF
  can1  0CF00400   [8]  48 D9 B0 1E 33 00 0F B1
  can1  0CF00203   [8]  C1 8C 07 FF F7 A1 17 03
  can1  10FDA300   [8]  FF FF 31 FF FF FF FF FF
  can1  0CF00C03   [8]  87 05 45 33 FF FF FF FF
  can1  18F00029   [8]  F0 7D 7D F3 29 FF FF 35
  can1  18FEDF00   [8]  8B A0 28 7D 7D FF FF F1
  can1  0CF00203   [8]  C1 9B 07 FF F7 DE 17 03
  can1  18FCDC00   [8]  9F FF FF FF E0 44 DC 07
  can1  0CF00300   [8]  D4 F9 3E FF FF 4F 80 83
  can1  1CFE9200   [8]  FF 54 C7 FF FF FF 8C 00
  can1  18FEF500   [8]  A9 FF FF 33 25 FF FF FF
  can1  18F00131   [8]  FF FF FF 3F 00 FF FF FF
  can1  18FEF131   [8]  F3 FF FF C3 CC FF FF F0
  can1  18FEF031   [8]  FF FF FF FF FF FC CC FF
  can1  18FF4831   [8]  00 00 FF FF 00 00 00 00
  can1  18FEF231   [8]  FF FF FF FF FF FF FF FF
  can1  0CF00331   [8]  FF FF FF FF FF FF FF FF
  can1  0CF00400   [8]  58 D9 B0 7B 33 00 0F B1
  can1  18F0010B   [8]  CF FF F0 FF FF CD FF FF
  can1  0CF00203   [8]  C1 9B 07 FF F7 DE 17 03
  can1  14FC9800   [8]  FF 00 00 00 00 00 00 FF
  can1  0CF00C03   [8]  86 05 61 33 FF FF FF FF
  can1  0CF00A00   [8]  00 00 4C 1D FF FF FF FF
  can1  18FD9400   [8]  00 00 FF FF FF FF FF FF
  can1  18F00E00   [8]  7E 3E FF FF D5 9F FF FF
  can1  18F03300   [8]  FF FF FF FF FF FF FF FF
  can1  18FEDF00   [8]  8C A0 28 7D 7D FF FF F1
  can1  0C010305   [8]  FF FF FF FF FF F3 FF FF
  can1  18FEBF0B   [8]  C0 08 7D 7D 81 7F FF FF
  can1  0CF00203   [8]  C1 B9 07 FF F7 28 18 03
  can1  18FEE000   [8]  25 92 00 00 6E FB 34 00
  can1  0CF00300   [8]  D4 F9 3E FF FF 4F 81 83
  can1  18FEA400   [8]  FF FF 6B 2A FF FF 89 2C
  can1  18FDB400   [8]  49 42 B3 3F FF FF FF FF
  can1  18FEF200   [8]  82 01 C9 00 78 09 E1 FF
  can1  18F00F00   [8]  FF FF FF FF FF FF FF FF
  can1  0CF00400   [8]  68 D9 B0 76 33 00 0F B1
  can1  0CF00203   [8]  C1 B9 07 FF F7 28 18 03
  can1  0CF00C03   [8]  82 05 7D 33 FF FF FF FF
  can1  18F00503   [8]  7E 1E 0C 7E 35 20 31 43
  can1  18FE4A03   [8]  03 0F 4F FF FF F3 FF FF
  can1  18FEDF00   [8]  8C A0 28 7D 7D FF FF F1
  can1  10FCFD00   [8]  FF FF FF FF 00 86 FF FF
  can1  0CF00203   [8]  C1 D0 07 FF F7 74 18 03
  can1  0CF00300   [8]  D4 F9 3E FF FF 4F 81 84
  can1  18FD7C00   [8]  F8 83 00 00 C3 0F 03 FF
  can1  18F00100   [8]  FF FF FF FF FF FF FF FF
  can1  0CF00400   [8]  68 D9 B0 BC 33 00 0F B1
  can1  0CF00203   [8]  C1 D0 07 FF F7 74 18 03
  can1  18FDB300   [8]  FF FF 6C 3E FF FF FF FF
  can1  0CF00C03   [8]  7E 05 98 33 FF FF FF FF
  can1  0CF00331   [8]  FF FF FF FF FF FF FF FF
  can1  18FEDF00   [8]  8C A0 28 7D 7D FF FF F1
  can1  0CF00203   [8]  C1 DD 07 FF F7 D3 18 03
  can1  0CF00300   [8]  D4 F9 3E FF FF 4F 81 84
  can1  0CF00A00   [8]  00 00 E2 1D FF FF FF FF
  can1  18FEF000   [8]  FF FF FF C0 2B FF FF FF
  can1  18F00E00   [8]  F6 3E FF FF D5 9F FF FF
  can1  18F03300   [8]  FF FF FF FF FF FF FF FF
  can1  18FE9A00   [8]  82 26 FF FF FF FF FF FF
  can1  0C010305   [8]  FF FF FF FF FF F3 FF FF
  can1  0CF00400   [8]  68 D9 B0 D4 33 00 0F B1
  can1  0CF00203   [8]  C1 DD 07 FF F7 D3 18 03
  can1  18FDB200   [8]  FF FF FF FF 12 00 FF FF
  can1  0CF00C03   [8]  79 05 C1 33 FF FF FF FF
  can1  18FCF200   [8]  E1 FF FF FF FF FF FF FF
  can1  18FEDF00   [8]  8C A0 28 7D 7D FF FF F1
  can1  18F00F00   [8]  FF FF FF FF FF FF FF FF
  can1  0CF00203   [8]  C1 FD 07 FF F7 13 19 03
  can1  0CF00300   [8]  D4 F9 3E FF FF 4F 81 84
  can1  18FEF100   [8]  FF 64 08 FC FF 44 00 CF
  can1  0CF00400   [8]  78 D9 B0 D0 33 00 0F B1
  can1  0CF00203   [8]  C1 FD 07 FF F7 13 19 03
  can1  10FDA300   [8]  FF FF 34 FF FF FF FF FF
  can1  0CF00C03   [8]  76 05 F3 33 FF FF FF FF
  can1  18FE9900   [8]  FF FF FF FF FF FF FF FF
  can1  18F00029   [8]  F0 7D 7D F3 29 FF FF 35
  can1  18FD8C00   [8]  FF FF 0D 00 FF FF FF FF
  can1  18FEDF00   [8]  8C A0 28 7D 7D FF FF F1
  can1  0CF00203   [8]  C1 18 08 FF F7 72 19 03
  can1  18FCDC00   [8]  9F FF FF FF E0 44 64 08
  can1  0CF00300   [8]  D4 F9 3D FF FF 4F 81 84
  can1  1CFE9200   [8]  FF B0 CC FF FF FF 8C 00
  can1  18F00131   [8]  FF FF FF 3F 00 FF FF FF
  can1  18FEF131   [8]  F3 FF FF C3 CC FF FF F0
  can1  18FEF031   [8]  FF FF FF FF FF FC CC FF
  can1  18FF4831   [8]  00 00 FF FF 00 00 00 00
  can1  18FEF231   [8]  FF FF FF FF FF FF FF FF
  can1  0CF00331   [8]  FF FF FF FF FF FF FF FF
  can1  0CF00400   [8]  08 D9 B1 EA 33 00 0F B1
  can1  18F0010B   [8]  CF FF F0 FF FF CD FF FF
  can1  0CF00203   [8]  C1 18 08 FF F7 72 19 03
  can1  0CF00C03   [8]  71 05 EE 33 FF FF FF FF
  can1  0CF00A00   [8]  00 00 8A 1E FF FF FF FF
  can1  18FD9400   [8]  00 00 FF FF FF FF FF FF
  can1  18FEFC00   [8]  FF FF FF FF FF FF FF FF
  can1  18F00E00   [8]  04 40 FF FF D5 9F FF FF
  can1  18FD2000   [8]  49 42 FF FF FF FF FF FF
  can1  18F03300   [8]  FF FF FF FF FF FF FF FF
  can1  0C010305   [8]  FF FF FF FF FF F3 FF FF
  can1  18FEDF00   [8]  8C A0 28 7D 7D FF FF F1
  can1  18FEBF0B   [8]  60 09 7D 7B 7F 7F FF FF
  can1  0CF00203   [8]  C1 3B 08 FF F7 D8 19 03
  can1  18FEE000   [8]  25 92 00 00 6E FB 34 00
  can1  0CF00300   [8]  D4 F9 3E FF FF 4F 81 84
  can1  18FEF200   [8]  82 01 DE 00 79 09 E1 FF
  can1  18F00F00   [8]  FF FF FF FF FF FF FF FF
  can1  0CF00400   [8]  78 D9 B0 26 34 00 0F B1
  can1  0CF00203   [8]  C1 3B 08 FF F7 D8 19 03
  can1  0CF00C03   [8]  6B 05 13 34 FF FF FF FF
  can1  18F00503   [8]  7E 1E 0C 7E 35 20 31 43
  can1  18FE4A03   [8]  03 0F 4F FF FF F3 FF FF
  can1  18FEDF00   [8]  8C A0 28 7D 7D FF FF F1
  can1  10FCFD00   [8]  FF FF FF FF 73 86 FF FF
  can1  0CF00203   [8]  C1 54 08 FF F7 15 1A 03
  can1  18FD3E00   [8]  73 3A FF CC 34 FF FF FF
  can1  0CF00300   [8]  D4 F9 3D FF FF 4F 81 84
  can1  18F00100   [8]  FF FF FF FF FF FF FF FF
  can1  0CF00400   [8]  08 D9 B1 63 34 00 0F B1
  can1  0CF00203   [8]  C1 54 08 FF F7 15 1A 03
  can1  0CF00C03   [8]  67 05 5A 34 FF FF FF FF
  can1  0CF00331   [8]  FF FF FF FF FF FF FF FF
  can1  18FEDF00   [8]  8C A0 28 7D 7D FF FF F1
  can1  0CF00203   [8]  C1 74 08 FF F7 7D 1A 03
  can1  18FD4000   [8]  FF 3F 00 FF FF FF FF FF
  can1  0CF00300   [8]  D4 F9 3E FF FF 4F 82 84
  can1  0CF00A00   [8]  00 00 33 1F FF FF FF FF
  can1  18FEF000   [8]  FF FF FF C0 2B FF FF FF
  can1  18F00E00   [8]  26 41 FF FF D5 9F FF FF
  can1  18FECA00   [8]  03 FF 00 00 00 00 FF FF
  can1  18F03300   [8]  FF FF FF FF FF FF FF FF
  can1  0C010305   [8]  FF FF FF FF FF F3 FF FF
  can1  0CF00400   [8]  28 D9 B1 67 34 00 0F B1
  can1  0CF00203   [8]  C1 74 08 FF F7 7D 1A 03
  can1  18FCF200   [8]  E1 FF FF FF FF FF FF FF
  can1  0CF00C03   [8]  64 05 43 34 FF FF FF FF
  can1  18FEDF00   [8]  8C A0 28 7D 7D FF FF F1
  can1  18F00F00   [8]  FF FF FF FF FF FF FF FF
  can1  0CF00203   [8]  C1 98 08 FF F7 EF 1A 03
  can1  0CF00300   [8]  D4 F9 3E FF FF 4F 82 84
  can1  18FEF100   [8]  FF 28 09 FC FF 44 00 CF
  can1  1CECFF29   [8]  20 13 00 03 FF E1 FE 00
  can1  18FCC500   [8]  73 3A FF FF FF FF FF FF
  can1  0CFD9200   [8]  F4 FF FF FF FF FF FF FF
  can1  0CF00400   [8]  48 D9 B1 79 34 00 0F B2
  can1  0CF00203   [8]  C1 98 08 FF F7 EF 1A 03
  can1  10FDA300   [8]  FF FF 35 FF FF FF FF FF
  can1  0CF00C03   [8]  5D 05 66 34 FF FF FF FF
  can1  18F00029   [8]  F0 7D 7D F3 29 FF FF 35
  can1  18FEDF00   [8]  8C A0 28 7D 7D FF FF F1
  can1  0CF00203   [8]  C1 BC 08 FF F7 4A 1B 03
  can1  18FCDC00   [8]  9F FF FF FF E0 44 28 09
  can1  0CF00300   [8]  D4 F9 3E FF FF 4F 83 84
  can1  1CFE9200   [8]  FF D0 CD FF FF FF 8E 00
  can1  18FEFF00   [8]  FC C0 FF FF FF FF FF FF
  can1  18F00131   [8]  FF FF FF 3F 00 FF FF FF
  can1  18FEF131   [8]  F3 FF FF C3 CC FF FF F0
  can1  18FEF031   [8]  FF FF FF FF FF FC CC FF
  can1  18FF4831   [8]  00 00 FF FF 00 00 00 00
  can1  18FEF231   [8]  FF FF FF FF FF FF FF FF
  can1  0CF00331   [8]  FF FF FF FF FF FF FF FF
  can1  0CF00400   [8]  08 D9 B2 AD 34 00 0F B2
  can1  18F0010B   [8]  CF FF F0 FF FF CD FF FF
  can1  0CF00203   [8]  C1 BC 08 FF F7 4A 1B 03
  can1  0CF00A00   [8]  00 00 14 20 FF FF FF FF
  can1  0CF00C03   [8]  57 05 C9 34 FF FF FF FF
  can1  18FD9400   [8]  00 00 FF FF FF FF FF FF
  can1  18FEEF00   [8]  FF FF FF 4D B4 7D FF FA
  can1  18F00E00   [8]  C8 41 FF FF D5 9F FF FF
  can1  18F03300   [8]  FF FF FF FF FF FF FF FF
  can1  18FEDF00   [8]  8C A0 28 7D 7D FF FF F1
  can1  0C010305   [8]  FF FF FF FF FF F3 FF FF
  can1  18FEBF0B   [8]  00 0A 7D 7B 7F 83 FF FF
  can1  0CF00203   [8]  C1 D8 08 FF F7 BC 1B 03
  can1  18FEE000   [8]  25 92 00 00 6E FB 34 00
  can1  0CF00300   [8]  D4 F9 3F FF FF 4F 84 84
  can1  18FEF200   [8]  82 01 EB 00 78 09 E1 FF
  can1  18F00F00   [8]  FF FF FF FF FF FF FF FF
  can1  0CF00400   [8]  18 D9 B2 B3 34 00 0F B2
  can1  0CF00203   [8]  C1 D8 08 FF F7 BC 1B 03
  can1  18FEDB00   [8]  FF FF 27 7C FF FF FF FF
  can1  0CF00C03   [8]  54 05 CB 34 FF FF FF FF
  can1  1CEBFF29   [8]  01 14 01 00 19 3C 30 52
  can1  18F00503   [8]  7E 1E 0C 7E 35 20 31 43
  can1  18FE4A03   [8]  03 0F 4F FF FF F3 FF FF
  can1  18FEDF00   [8]  8C A0 28 7D 7D FF FF F1
  can1  10FCFD00   [8]  FF FF FF FF E0 86 FF FF
  can1  0CF00203   [8]  C1 F5 08 FF F7 02 1C 03
  can1  0CF00300   [8]  D4 F9 3F FF FF 4F 84 84
  can1  18F00100   [8]  FF FF FF FF FF FF FF FF
  can1  0CF00400   [8]  58 D9 B2 E4 34 00 0F B3
  can1  0CF00203   [8]  C1 F5 08 FF F7 02 1C 03
  can1  18FEF600   [8]  FF 17 62 FF FF FF FF FF
  can1  0CF00C03   [8]  50 05 CF 34 FF FF FF FF
  can1  0CF00331   [8]  FF FF FF FF FF FF FF FF
  can1  18FEDF00   [8]  8C A0 28 7D 7D FF FF F1
  can1  0CF00203   [8]  C1 0E 09 FF F7 57 1C 03
  can1  0CF00300   [8]  D4 F9 3F FF FF 4F 86 84
  can1  0CF00A00   [8]  00 00 BD 20 FF FF FF FF
  can1  18FEF000   [8]  FF FF FF C0 2B FF FF FF
  can1  18F00E00   [8]  2E 43 FF FF D5 9F FF FF
  can1  18F03300   [8]  FF FF FF FF FF FF FF FF
  can1  0C010305   [8]  FF FF FF FF FF F3 FF FF
  can1  0CF00400   [8]  48 D9 B3 19 35 00 0F B4
  can1  0CF00203   [8]  C1 0E 09 FF F7 57 1C 03
  can1  18FCF200   [8]  E1 FF FF FF FF FF FF FF
  can1  0CF00C03   [8]  4A 05 28 35 FF FF FF FF
  can1  18FEDF00   [8]  8D A0 28 7D 7D FF FF F1
  can1  18FDC600   [8]  FC 04 FF FF FF FF FF FF
  can1  18F00F00   [8]  FF FF FF FF FF FF FF FF
  can1  0CF00203   [8]  C1 27 09 FF F7 C2 1C 03
  can1  0CF00300   [8]  D4 FA 40 FF FF 4F 88 84
  can1  18FEF100   [8]  FF B4 09 FC FF 44 00 CF
  can1  0CF00400   [8]  58 D9 B3 6B 35 00 0F B4
  can1  1CEBFF29   [8]  02 29 D0 3A 33 80 4C 2C
  can1  0CF00203   [8]  C1 27 09 FF F7 C2 1C 03
  can1  10FDA300   [8]  FF FF 35 FF FF FF FF FF
  can1  0CF00C03   [8]  47 05 4B 35 FF FF FF FF
  can1  18F00029   [8]  F0 7D 7D F3 29 FF FF 34
  can1  18FEDF00   [8]  8D A0 28 7D 7D FF FF F1
  can1  0CF00203   [8]  C1 42 09 FF F7 0D 1D 03
  can1  18FCDC00   [8]  9F FF FF FF E0 44 B4 09
  can1  0CF00300   [8]  D4 FA 40 FF FF 4F 88 84
  can1  1CFE9200   [8]  FF FC D0 FF FF FF 96 00
  can1  18F00131   [8]  FF FF FF 3F 00 FF FF FF
  can1  18FEF131   [8]  F3 FF FF C3 CC FF FF F0
  can1  18FEF031   [8]  FF FF FF FF FF FC CC FF
  can1  18FF4831   [8]  00 00 FF FF 00 00 00 00
  can1  18FEF231   [8]  FF FF FF FF FF FF FF FF
  can1  0CF00331   [8]  FF FF FF FF FF FF FF FF
  can1  0CF00400   [8]  68 D9 B3 57 35 00 0F B4
  can1  18F0010B   [8]  CF FF F0 FF FF CD FF FF
  can1  0CF00203   [8]  C1 42 09 FF F7 0D 1D 03
  can1  0CF00A00   [8]  00 00 9E 21 FF FF FF FF
  can1  0CF00C03   [8]  44 05 45 35 FF FF FF FF
  can1  18FD9400   [8]  00 00 FF FF FF FF FF FF
  can1  18F00E00   [8]  C6 44 FF FF D5 9F FF FF
  can1  18F03300   [8]  FF FF FF FF FF FF FF FF
  can1  18FEDF00   [8]  8D A0 28 7D 7D FF FF F1
  can1  0C010305   [8]  FF FF FF FF FF F3 FF FF
  can1  18FEBF0B   [8]  A0 0A 7D 7D 83 7F FF FF
  can1  0CF00203   [8]  C1 63 09 FF F7 97 1D 03
  can1  18FEE000   [8]  25 92 00 00 6E FB 34 00
  can1  0CF00300   [8]  D4 FA 40 FF FF 4F 88 84
  can1  18FEF200   [8]  B3 01 E4 00 78 09 E1 FF
  can1  18F00F00   [8]  FF FF FF FF FF FF FF FF
  can1  0CF00400   [8]  28 D9 B4 8E 35 00 0F B4
  can1  0CF00203   [8]  C1 63 09 FF F7 97 1D 03
  can1  0CF00C03   [8]  3B 05 86 35 FF FF FF FF
  can1  18F00503   [8]  7E 1E 0C 7E 35 20 31 43
  can1  18FE4A03   [8]  03 0F 4F FF FF F3 FF FF
  can1  18FEDF00   [8]  8D A0 28 7D 7D FF FF F1
  can1  10FCFD00   [8]  FF FF FF FF 10 87 FF FF
  can1  0CF00203   [8]  C1 84 09 FF F7 CF 1D 03
  can1  0CF00300   [8]  D4 FA 41 FF FF 4F 8A 85
  can1  1CEBFF29   [8]  03 30 52 C2 01 29 FF FF
  can1  18F00100   [8]  FF FF FF FF FF FF FF FF
  can1  0CF00400   [8]  48 DA B4 C5 35 00 0F B5
  can1  0CF00203   [8]  C1 84 09 FF F7 CF 1D 03
  can1  0CF00C03   [8]  39 05 E8 35 FF FF FF FF
  can1  0CF00331   [8]  FF FF FF FF FF FF FF FF
  can1  18FEDF00   [8]  8D A0 28 7D 7D FF FF F1
  can1  0CF00203   [8]  C1 A2 09 FF F7 1D 1E 03
  can1  0CF00300   [8]  D4 FA 41 FF FF 4F 8A 85
  can1  0CF00A00   [8]  00 00 47 22 FF FF FF FF
  can1  18FEF000   [8]  FF FF FF C0 2B FF FF FF
  can1  18F00E00   [8]  1C 46 FF FF D5 9F FF FF
  can1  18F03300   [8]  FF FF FF FF FF FF FF FF
  can1  0C010305   [8]  FF FF FF FF FF F3 FF FF
  can1  0CF00400   [8]  48 D9 B4 D9 35 00 0F B5
  can1  0CF00203   [8]  C1 A2 09 FF F7 1D 1E 03
  can1  18FCF200   [8]  E1 FF FF FF FF FF FF FF
  can1  0CF00C03   [8]  37 05 EE 35 FF FF FF FF
  can1  18FEDF00   [8]  8D A0 28 7D 7D FF FF F1
  can1  18F00F00   [8]  FF FF FF FF FF FF FF FF
  can1  0CF00203   [8]  C1 C4 09 FF F7 91 1E 03
  can1  0CF00300   [8]  D4 FA 41 FF FF 4F 8A 85
  can1  18FEF100   [8]  FF 7C 0A FC FF 44 00 CF
  can1  0CF00400   [8]  28 DA B5 15 36 00 0F B5
  can1  0CF00203   [8]  C1 C4 09 FF F7 91 1E 03
  can1  10FDA300   [8]  FF FF 37 FF FF FF FF FF
  can1  0CF00C03   [8]  32 05 01 36 FF FF FF FF
  can1  18F00029   [8]  F0 7D 7D F3 29 FF FF 34
  can1  18FEDF00   [8]  8D A0 28 7D 7D FF FF F1
  can1  0CF00203   [8]  C1 E6 09 FF F7 EB 1E 03
  can1  18FCDC00   [8]  9F FF FF FF E0 44 7C 0A
  can1  0CF00300   [8]  D4 FA 42 FF FF 4F 8C 85
  can1  1CFE9200   [8]  FF 7C D5 FF FF FF 9C 00
  can1  18F00131   [8]  FF FF FF 3F 00 FF FF FF
  can1  18FEF131   [8]  F3 FF FF C3 CC FF FF F0
  can1  18FEF031   [8]  FF FF FF FF FF FC CC FF
  can1  18FF4831   [8]  00 00 FF FF 00 00 00 00
  can1  18FEF231   [8]  FF FF FF FF FF FF FF FF
  can1  0CF00331   [8]  FF FF FF FF FF FF FF FF
  can1  0CF00400   [8]  18 DA B6 50 36 00 0F B6
  can1  18F0010B   [8]  CF FF F0 FF FF CD FF FF
  can1  0CF00203   [8]  C1 E6 09 FF F7 EB 1E 03
  can1  0CF00A00   [8]  00 00 EF 22 FF FF FF FF
  can1  0CF00C03   [8]  2C 05 5D 36 FF FF FF FF
  can1  18FD9400   [8]  00 00 FF FF FF FF FF FF
  can1  18F00E00   [8]  DA 46 FF FF D5 9F FF FF
  can1  18F03300   [8]  FF FF FF FF FF FF FF FF
  can1  18FEDF00   [8]  8D A0 28 7D 7D FF FF F1
  can1  0C010305   [8]  FF FF FF FF FF F3 FF FF
  can1  18FEBF0B   [8]  40 0B 7D 7D 83 81 FF FF
  can1  0CF00203   [8]  C1 02 0A FF F7 46 1F 03
  can1  18FEE000   [8]  25 92 00 00 6E FB 34 00
  can1  0CF00300   [8]  D4 FA 43 FF FF 4F 8E 85
  can1  18FEF200   [8]  8C 01 07 01 79 09 E1 FF
  can1  18F00F00   [8]  FF FF FF FF FF FF FF FF
  can1  0CF00400   [8]  08 DA B6 A3 36 00 0F B6
  can1  0CF00203   [8]  C1 02 0A FF F7 46 1F 03
  can1  0CF00C03   [8]  2B 05 8C 36 FF FF FF FF
  can1  18F00503   [8]  7E 1E 0C 7E 35 20 31 43
  can1  18FE4A03   [8]  03 0F 4F FF FF F3 FF FF
  can1  18FEDF00   [8]  8D A0 28 7D 7D FF FF F1
  can1  10FCFD00   [8]  FF FF FF FF 46 87 FF FF
  can1  0CFD9200   [8]  F4 FF FF FF FF FF FF FF
  can1  0CF00203   [8]  C1 18 0A FF F7 89 1F 03
  can1  0CF00300   [8]  D4 FA 43 FF FF 4F 8E 85
  can1  18F00100   [8]  FF FF FF FF FF FF FF FF
  can1  0CF00400   [8]  48 DA B6 B3 36 00 0F B7
  can1  0CF00203   [8]  C1 18 0A FF F7 89 1F 03
  can1  0CF00C03   [8]  28 05 8F 36 FF FF FF FF
  can1  0CF00331   [8]  FF FF FF FF FF FF FF FF
  can1  18FEDF00   [8]  8D A0 28 7D 7D FF FF F1
  can1  0CF00203   [8]  C1 32 0A FF F7 FB 1F 03
  can1  0CF00300   [8]  D4 FA 43 FF FF 4F 8F 85
  can1  0CF00A00   [8]  00 00 FF 23 FF FF FF FF
  can1  18FEF000   [8]  FF FF FF C0 2B FF FF FF
  can1  18F00E00   [8]  44 48 FF FF D5 9F FF FF
  can1  18F03300   [8]  FF FF FF FF FF FF FF FF
  can1  0C010305   [8]  FF FF FF FF FF F3 FF FF
  can1  0CF00400   [8]  08 DA B7 D9 36 00 0F B7
  can1  0CF00203   [8]  C1 32 0A FF F7 FB 1F 03
  can1  18FCF200   [8]  E1 FF FF FF FF FF FF FF
  can1  0CF00C03   [8]  22 05 C0 36 FF FF FF FF
  can1  18FEDF00   [8]  8E A0 28 7D 7D FF FF F1
  can1  18F00F00   [8]  FF FF FF FF FF FF FF FF
  can1  0CF00203   [8]  C1 4B 0A FF F7 49 20 03
  can1  18FD0700   [8]  03 0C FC FF FF FF FF FF
  can1  0CF00300   [8]  D4 FA 43 FF FF 4F 90 85
  can1  18FEF100   [8]  FF 08 0B FC FF 44 00 CF
  can1  0CF00400   [8]  48 DA B7 16 37 00 0F B7
  can1  0CF00203   [8]  C1 4B 0A FF F7 49 20 03
  can1  10FDA300   [8]  FF FF 39 FF FF FF FF FF
  can1  0CF00C03   [8]  1E 05 20 37 FF FF FF FF
  can1  18F00029   [8]  F0 7D 7D F3 29 FF FF 34
  can1  18FEDF00   [8]  8E A0 28 7D 7D FF FF F1
  can1  0CF00203   [8]  C1 70 0A FF F7 C0 20 03
  can1  18FCDC00   [8]  9F FF FF FF E0 44 08 0B
  can1  0CF00300   [8]  D4 FA 44 FF FF 4F 92 85
  can1  1CFE9200   [8]  FF 44 D8 FF FF FF A6 00
  can1  18F00131   [8]  FF FF FF 3F 00 FF FF FF
  can1  18FEF131   [8]  F3 FF FF C3 CC FF FF F0
  can1  18FEF031   [8]  FF FF FF FF FF FC CC FF
  can1  18FF4831   [8]  00 00 FF FF 00 00 00 00
  can1  18FEF231   [8]  FF FF FF FF FF FF FF FF
  can1  0CF00331   [8]  FF FF FF FF FF FF FF FF
  can1  0CF00400   [8]  48 D9 B7 31 37 00 0F B7
  can1  18F0010B   [8]  CF FF F0 FF FF CD FF FF
  can1  0CF00203   [8]  C1 70 0A FF F7 C0 20 03
  can1  14FC9800   [8]  FF 00 00 00 00 00 00 FF
  can1  0CF00C03   [8]  1A 05 51 37 FF FF FF FF
  can1  0CF00A00   [8]  00 00 FC 24 FF FF FF FF
  can1  18FD9400   [8]  00 00 FF FF FF FF FF FF
  can1  18F00E00   [8]  6E 49 FF FF D5 9F FF FF
  can1  18F03300   [8]  FF FF FF FF FF FF FF FF
  can1  18FEDF00   [8]  8E A0 28 7D 7D FF FF F1
  can1  0C010305   [8]  FF FF FF FF FF F3 FF FF
  can1  18FEBF0B   [8]  00 0C 7D 7B 7D 7F FF FF
  can1  0CF00203   [8]  C1 95 0A FF F7 49 21 03
  can1  18FEE000   [8]  25 92 00 00 6E FB 34 00
  can1  0CF00300   [8]  D4 FA 44 FF FF 4F 92 85
  can1  18FDB400   [8]  0C 43 C0 3F FF FF FF FF
  can1  18FEF200   [8]  C9 01 F6 00 78 09 E1 FF
  can1  18F00F00   [8]  FF FF FF FF FF FF FF FF
  can1  0CF00400   [8]  08 D9 B8 61 37 00 0F B8
  can1  0CF00203   [8]  C1 95 0A FF F7 49 21 03
  can1  0CF00C03   [8]  15 05 64 37 FF FF FF FF
  can1  18F00503   [8]  7E 1E 0C 7E 35 20 31 43
  can1  18FE4A03   [8]  03 0F 4F FF FF F3 FF FF
  can1  18FEDF00   [8]  8E A0 28 7D 7D FF FF F1
  can1  10FCFD00   [8]  FF FF FF FF 7C 87 FF FF
  can1  0CF00203   [8]  C1 BD 0A FF F7 8D 21 03
  can1  0CF00300   [8]  D4 FA 45 FF FF 4F 93 85
  can1  18F00100   [8]  FF FF FF FF FF FF FF FF
  can1  0CF00400   [8]  78 D9 B8 99 37 00 0F B9
  can1  0CF00203   [8]  C1 BD 0A FF F7 8D 21 03
  can1  18FDB300   [8]  FF FF 79 3E FF FF FF FF
  can1  0CF00C03   [8]  10 05 AE 37 FF FF FF FF
  can1  0CF00331   [8]  FF FF FF FF FF FF FF FF
  can1  18FEDF00   [8]  8E A0 28 7D 7D FF FF F1
  can1  0CF00203   [8]  C1 DC 0A FF F7 E2 21 03
  can1  0CF00300   [8]  D4 F9 45 FF FF 4F 95 85
  can1  0CF00A00   [8]  00 00 03 26 FF FF FF FF
  can1  18FEF000   [8]  FF FF FF C0 2B FF FF FF
  can1  18F00E00   [8]  10 4A FF FF D5 9F FF FF
  can1  18F03300   [8]  FF FF FF FF FF FF FF FF
  can1  0C010305   [8]  FF FF FF FF FF F3 FF FF
  can1  0CF00400   [8]  08 D9 B9 0C 38 00 0F B9
  can1  0CF00203   [8]  C1 DC 0A FF F7 E2 21 03
  can1  18FDB200   [8]  FF FF FF FF 18 00 FF FF
  can1  0CF00C03   [8]  0D 05 F3 37 FF FF FF FF
  can1  18FCF200   [8]  E1 FF FF FF FF FF FF FF
  can1  18FEDF00   [8]  8E A0 28 7D 7D FF FF F1
  can1  18F00F00   [8]  FF FF FF FF FF FF FF FF
  can1  0CF00203   [8]  C1 F9 0A FF F7 50 22 03
  can1  0CF00300   [8]  D4 F9 45 FF FF 4F 95 85
  can1  18FEF100   [8]  FF D8 0B FC FF 44 00 CF
  can1  0CF00400   [8]  58 D9 B9 17 38 00 0F BA
  can1  0CF00203   [8]  C1 F9 0A FF F7 50 22 03
  can1  10FDA300   [8]  FF FF 3A FF FF FF FF FF
  can1  0CF00C03   [8]  0B 05 11 38 FF FF FF FF
  can1  18F00029   [8]  F0 7D 7D F3 29 FF FF 34
  can1  18FD8C00   [8]  FF FF 14 00 FF FF FF FF
  can1  18FEDF00   [8]  8E A0 28 7D 7D FF FF F1
  can1  0CF00203   [8]  C1 15 0B FF F7 84 22 03
  can1  18FCDC00   [8]  9F FF FF FF E0 44 D8 0B
  can1  0CF00300   [8]  D4 F8 46 FF FF 4F 97 85
  can1  1CFE9200   [8]  FF 0C DB FF FF FF B2 00
  can1  18F00131   [8]  FF FF FF 3F 00 FF FF FF
  can1  18E0FF31   [8]  00 FF FF FF FF F0 FF FF
  can1  18FEF131   [8]  F3 FF FF C3 CC FF FF F0
  can1  18FEF031   [8]  FF FF FF FF FF FC CC FF
  can1  18FEFC31   [8]  FF AB FF FF FF FF 00 FF
  can1  18FEAE31   [8]  FF FF 61 61 FF FF FF FF
  can1  0CF00400   [8]  28 D9 BA 69 38 00 0F BA
  can1  18FEF731   [8]  FF FF FF FF 19 01 FF FF
  can1  18FF4831   [8]  00 00 FF FF 00 00 00 00
  can1  18F0010B   [8]  CF FF F0 FF FF CD FF FF
  can1  18FD8331   [8]  F8 FF FF FF FF FF FF FF
  can1  0CF00203   [8]  C1 15 0B FF F7 84 22 03
  can1  0CF00A00   [8]  00 00 BE 26 FF FF FF FF
  can1  0CF00C03   [8]  09 05 5C 38 FF FF FF FF
  can1  18FD9400   [8]  00 00 FF FF FF FF FF FF
  can1  18FEF831   [8]  FF FF FF FF FF FF FF FF
  can1  18F00E00   [8]  28 4C FF FF D5 9F FF FF
  can1  18FEF231   [8]  FF FF FF FF FF FF FF FF
  can1  18FEFA31   [8]  FF C2 C2 FF FF FF FF FF
  can1  18FEC131   [8]  CA 8D 2C 05 FF FF FF FF
  can1  0CF00331   [8]  FF FF FF FF FF FF FF FF
  can1  18FD2000   [8]  0C 43 FF FF FF FF FF FF
  can1  0C010305   [8]  FF FF FF FF FF F3 FF FF
  can1  18F03300   [8]  FF FF FF FF FF FF FF FF
  can1  18FEDF00   [8]  8E A0 28 7D 7D FF FF F1
  can1  18FEBF0B   [8]  80 0C 7D 7D 83 83 FF FF
  can1  0CF00203   [8]  C1 27 0B FF F7 C3 22 03
  can1  18FEE000   [8]  25 92 00 00 6E FB 34 00
  can1  0CF00300   [8]  D4 F8 47 FF FF 4F 99 85
  can1  18FEF200   [8]  D9 01 F9 00 78 09 E1 FF
  can1  18F00F00   [8]  FF FF FF FF FF FF FF FF
  can1  0CF00400   [8]  28 D9 BA D3 38 00 0F BA
  can1  0CF00203   [8]  C1 27 0B FF F7 C3 22 03
  can1  0CF00C03   [8]  07 05 A1 38 FF FF FF FF
  can1  18F00503   [8]  7E 1E 0C 7E 35 20 31 43
  can1  18FE4A03   [8]  03 0F 4F FF FF F3 FF FF
  can1  18FD9503   [8]  CC FF FF B3 FF FF FF FF
  can1  18FEF803   [8]  FF FF FF FF 52 2D FF FF
  can1  18FEDF00   [8]  8E A0 28 7D 7D FF FF F1
  can1  10FCFD00   [8]  FF FF FF FF C9 87 FF FF
  can1  0CF00203   [8]  C1 3B 0B FF F7 1E 23 03
  can1  18FD3E00   [8]  79 3A FF D9 34 FF FF FF
  can1  0CF00300   [8]  D4 F8 47 FF FF 4F 99 86
  can1  18F00100   [8]  FF FF FF FF FF FF FF FF
  can1  0CF00400   [8]  78 D9 BA B8 38 00 0F BB
  can1  0CF00203   [8]  C1 3B 0B FF F7 1E 23 03
  can1  0CF00C03   [8]  04 05 B6 38 FF FF FF FF
  can1  0CF00331   [8]  FF FF FF FF FF FF FF FF
  can1  18FEDF00   [8]  8E A0 28 7D 7D FF FF F1
  can1  0CF00203   [8]  C1 5A 0B FF F7 8D 23 03
  can1  18FD4000   [8]  FF 3F 00 FF FF FF FF FF
  can1  18FECA03   [8]  00 FF 00 00 00 00 FF FF
  can1  0CF00300   [8]  D4 F8 47 FF FF 4F 9A 86
  can1  0CF00A00   [8]  00 00 F4 27 FF FF FF FF
  can1  18FEF000   [8]  FF FF FF C0 2B FF FF FF
  can1  18F00E00   [8]  CC 4C FF FF D5 9F FF FF
  can1  18F03300   [8]  FF FF FF FF FF FF FF FF
  can1  0C010305   [8]  FF FF FF FF FF F3 FF FF
  can1  0CF00400   [8]  28 D9 BB 10 39 00 0F BB
  can1  0CF00203   [8]  C1 5A 0B FF F7 8D 23 03
  can1  18FCF200   [8]  E1 FF FF FF FF FF FF FF
  can1  0CF00C03   [8]  00 05 01 39 FF FF FF FF
  can1  18FEDF00   [8]  8F A0 28 7D 7D FF FF F1
  can1  18F00F00   [8]  FF FF FF FF FF FF FF FF
  can1  0CF00203   [8]  C1 7B 0B FF F7 E1 23 03
  can1  0CF00300   [8]  D4 F9 48 FF FF 4F 9B 86
  can1  18FEF100   [8]  FF 60 0C FC FF 44 00 CF
  can1  18FCC500   [8]  79 3A FF FF FF FF FF FF
  can1  0CFD9200   [8]  F4 FF FF FF FF FF FF FF
  can1  0CF00400   [8]  78 D9 BB 60 39 00 0F BC
  can1  0CF00203   [8]  C1 7B 0B FF F7 E1 23 03
  can1  10FDA300   [8]  FF FF 3D FF FF FF FF FF
  can1  0CF00C03   [8]  FC 04 6B 39 FF FF FF FF
  can1  18F00029   [8]  F0 7D 7D F3 29 FF FF 33
  can1  18FEDF00   [8]  8F A0 28 7D 7D FF FF F1
  can1  0CF00203   [8]  C1 9C 0B FF F7 41 24 03
  can1  18FCDC00   [8]  9F FF FF FF E0 44 60 0C
  can1  0CF00300   [8]  D4 F9 48 FF FF 4F 9D 86
  can1  1CFE9200   [8]  FF 10 E0 FF FF FF BA 00
  can1  18F00131   [8]  FF FF FF 3F 00 FF FF FF
  can1  18FEF131   [8]  F3 FF FF C3 CC FF FF F0
  can1  18FEF031   [8]  FF FF FF FF FF FC CC FF
  can1  18FF4831   [8]  00 00 FF FF 00 00 00 00
  can1  18FEF231   [8]  FF FF FF FF FF FF FF FF
  can1  0CF00331   [8]  FF FF FF FF FF FF FF FF
  can1  0CF00400   [8]  78 D9 BB 90 39 00 0F BC
  can1  18F0010B   [8]  CF FF F0 FF FF CD FF FF
  can1  0CF00203   [8]  C1 9C 0B FF F7 41 24 03
  can1  0CF00A00   [8]  00 00 29 29 FF FF FF FF
  can1  0CF00C03   [8]  FB 04 A7 39 FF FF FF FF
  can1  18FD9400   [8]  00 00 FF FF FF FF FF FF
  can1  18FEEF00   [8]  FF FF FF 51 BD 7D FF FA
  can1  18F00E00   [8]  7E 4D FF FF D5 9F FF FF
  can1  18FECA31   [8]  00 FF 00 00 00 00 FF FF
  can1  18F03300   [8]  FF FF FF FF FF FF FF FF
  can1  18FEDF00   [8]  8F A0 28 7D 7D FF FF F1
  can1  0C010305   [8]  FF FF FF FF FF F3 FF FF
  can1  18FEBF0B   [8]  20 0D 7D 7D 85 83 FF FF
  can1  0CF00203   [8]  C1 C3 0B FF F7 DC 24 03
  can1  18FEE000   [8]  25 92 00 00 6E FB 34 00
  can1  0CF00300   [8]  D4 F9 48 FF FF 4F 9D 86
  can1  18FEF200   [8]  B1 01 24 01 79 09 E1 FF
  can1  18F00F00   [8]  FF FF FF FF FF FF FF FF
  can1  0CF00400   [8]  48 D9 BC D2 39 00 0F BD
  can1  0CF00203   [8]  C1 C3 0B FF F7 DC 24 03
  can1  18FEDB00   [8]  FF FF 28 7E FF FF FF FF
  can1  0CF00C03   [8]  F5 04 D2 39 FF FF FF FF
  can1  18F00503   [8]  7E 1E 0C 7E 35 20 31 43
  can1  18FE4A03   [8]  03 0F 4F FF FF F3 FF FF
  can1  18FEDF00   [8]  8F A0 28 7D 7D FF FF F1
  can1  10FCFD00   [8]  FF FF FF FF 26 88 FF FF
  can1  0CF00203   [8]  C1 EA 0B FF F7 27 25 03
  can1  0CF00300   [8]  D4 F9 49 FF FF 4F 9E 86
  can1  18F00100   [8]  FF FF FF FF FF FF FF FF
  can1  0CF00400   [8]  48 D9 BD E6 39 00 0F BD
  can1  0CF00203   [8]  C1 EA 0B FF F7 27 25 03
  can1  18FEF600   [8]  FF 22 62 FF FF FF FF FF
  can1  0CF00C03   [8]  F1 04 1C 3A FF FF FF FF
  can1  0CF00331   [8]  FF FF FF FF FF FF FF FF
  can1  18FEDF00   [8]  8F A0 28 7D 7D FF FF F1
  can1  18EAFF31   [3]  E9 FE 00
  can1  0CF00203   [8]  C1 0A 0C FF F7 A7 25 03
  can1  18FEE900   [8]  B7 07 00 00 0C 38 03 00
  can1  0CF00300   [8]  D4 F9 4A FF FF 4F A1 86
  can1  0CF00A00   [8]  00 00 5E 2A FF FF FF FF
  can1  18FEF000   [8]  FF FF FF C0 2B FF FF FF
  can1  18F00E00   [8]  10 4E FF FF D5 9F FF FF
  can1  18F11031   [8]  00 00 FF FF FF FF FF FF
  can1  18F03300   [8]  FF FF FF FF FF FF FF FF
  can1  0C010305   [8]  FF FF FF FF FF F3 FF FF
  can1  0CF00400   [8]  38 D9 BD 45 3A 00 0F BD
  can1  0CF00203   [8]  C1 0A 0C FF F7 A7 25 03
  can1  18FCF200   [8]  E1 FF FF FF FF FF FF FF
  can1  0CF00C03   [8]  EE 04 51 3A FF FF FF FF
  can1  18FEDF00   [8]  8F A0 28 7D 7D FF FF F1
  can1  18FDC600   [8]  FC 04 FF FF FF FF FF FF
  can1  18F00F00   [8]  FF FF FF FF FF FF FF FF
  can1  0CF00203   [8]  C1 28 0C FF F7 02 26 03
  can1  0CF00300   [8]  D4 F9 4A FF FF 4F A1 86
  can1  18FEF100   [8]  FF 34 0D FC FF 44 00 CF
  can1  0CF00400   [8]  38 D9 BE 97 3A 00 0F BE
  can1  0CF00203   [8]  C1 28 0C FF F7 02 26 03
  can1  10FDA300   [8]  FF FF 3F FF FF FF FF FF
  can1  0CF00C03   [8]  EA 04 86 3A FF FF FF FF
  can1  18F00029   [8]  F0 7D 7D F3 29 FF FF 33
  can1  18FEDF00   [8]  8F A0 28 7D 7D FF FF F1
  can1  0CF00203   [8]  C1 4B 0C FF F7 72 26 03
  can1  18FCDC00   [8]  9F FF FF FF E0 44 34 0D
  can1  0CF00300   [8]  D4 F9 4B FF FF 4F A3 86
  can1  1CFE9200   [8]  FF 5C E3 FF FF FF C8 00
  can1  18F00131   [8]  FF FF FF 3F 00 FF FF FF
  can1  18FEF131   [8]  F3 FF FF C3 CC FF FF F0
  can1  18FEF031   [8]  FF FF FF FF FF FC CC FF
  can1  18FF4831   [8]  00 00 FF FF 00 00 00 00
  can1  18FEF231   [8]  FF FF FF FF FF FF FF FF
  can1  0CF00331   [8]  FF FF FF FF FF FF FF FF
  can1  0CF00400   [8]  48 D9 BF E5 3A 00 0F C0
  can1  18F0010B   [8]  CF FF F0 FF FF CD FF FF
  can1  0CF00203   [8]  C1 4B 0C FF F7 72 26 03
  can1  0CF00A00   [8]  00 00 65 2B FF FF FF FF
  can1  0CF00C03   [8]  E5 04 D1 3A FF FF FF FF
  can1  18FD9400   [8]  00 00 FF FF FF FF FF FF
  can1  18F00E00   [8]  92 4E FF FF D5 9F FF FF
  can1  18F03300   [8]  FF FF FF FF FF FF FF FF
  can1  18FEDF00   [8]  8F A0 28 7D 7D FF FF F1
  can1  0C010305   [8]  FF FF FF FF FF F3 FF FF
  can1  18FEBF0B   [8]  00 0E 7D 7B 83 85 FF FF
  can1  0CF00203   [8]  C1 6A 0C FF F7 F1 26 03
  can1  18FEF700   [8]  FF FF FF FF 18 01 FF FF
  can1  18FEE000   [8]  25 92 00 00 6E FB 34 00
  can1  0CF00300   [8]  D4 F9 4C FF FF 4F A6 86
  can1  18FEF200   [8]  30 02 EC 00 78 09 E1 FF
  can1  18F00F00   [8]  FF FF FF FF FF FF FF FF
  can1  0CF00400   [8]  48 D9 BF 46 3B 00 0F C0
  can1  0CF00203   [8]  C1 6A 0C FF F7 F1 26 03
  can1  0CF00C03   [8]  E2 04 2F 3B FF FF FF FF
  can1  18F00503   [8]  7E 1E 0C 7E 35 20 31 43
  can1  18FE4A03   [8]  03 0F 4F FF FF F3 FF FF
  can1  18FEDF00   [8]  8F A0 28 7D 7D FF FF F1
  can1  10FCFD00   [8]  FF FF FF FF A6 88 FF FF
  can1  0CF00203   [8]  C1 8C 0C FF F7 38 27 03
  can1  18FEC100   [8]  CA 8D 2C 05 A6 45 0E 00
  can1  0CF00300   [8]  D4 F9 4C FF FF 4F A6 87
  can1  18F00100   [8]  FF FF FF FF FF FF FF FF
  can1  0CF00400   [8]  28 D9 C0 58 3B 00 0F C0
  can1  0CF00203   [8]  C1 8C 0C FF F7 38 27 03
  can1  0CF00C03   [8]  E1 04 4C 3B FF FF FF FF
  can1  0CF00331   [8]  FF FF FF FF FF FF FF FF
  can1  18FEDF00   [8]  90 A0 28 7D 7D FF FF F1
  can1  0CF00203   [8]  C1 B3 0C FF F7 AD 27 03
  can1  0CF00300   [8]  D4 F9 4D FF FF 4F A8 87
  can1  0CF00A00   [8]  00 00 AD 2C FF FF FF FF
  can1  18FEF000   [8]  FF FF FF C0 2B FF FF FF
  can1  18F00E00   [8]  A8 4E FF FF D5 9F FF FF
  can1  18FE5600   [8]  B7 3C FF FF 1F 1F 00 FF
  can1  18F03300   [8]  FF FF FF FF FF FF FF FF
  can1  0C010305   [8]  FF FF FF FF FF F3 FF FF
  can1  0CF00400   [8]  28 D9 C1 9E 3B 00 0F C1
  can1  0CF00203   [8]  C1 B3 0C FF F7 AD 27 03
  can1  18FCF200   [8]  E1 FF FF FF FF FF FF FF
  can1  0CF00C03   [8]  DC 04 9B 3B FF FF FF FF
  can1  18FEDF00   [8]  90 A0 28 7D 7D FF FF F1
  can1  18F00F00   [8]  FF FF FF FF FF FF FF FF
  can1  0CF00203   [8]  C1 D9 0C FF F7 22 28 03
  can1  0CF00300   [8]  D4 F9 4E FF FF 4F AA 87
  can1  18FEF100   [8]  FF CC 0D FC FF 44 00 CF
  can1  18FD7B00   [8]  03 FF FD 5A 00 00 20 2A
  can1  0CF00400   [8]  48 D9 C1 07 3C 00 0F C2
  can1  0CF00203   [8]  C1 D9 0C FF F7 22 28 03
  can1  10FDA300   [8]  FF FF 41 FF FF FF FF FF
  can1  0CF00C03   [8]  D7 04 E3 3B FF FF FF FF
  can1  18F00029   [8]  F0 7D 7D F3 29 FF FF 33
  can1  18FEDF00   [8]  90 A0 28 7D 7D FF FF F1
  can1  0CF00203   [8]  C1 01 0D FF F7 93 28 03
  can1  18FCDC00   [8]  9F FF FF FF E0 44 CC 0D
  can1  0CF00300   [8]  D4 F9 4E FF FF 4F AB 87
  can1  1CFE9200   [8]  FF 64 E6 FF FF FF D6 00
  can1  18F00131   [8]  FF FF FF 3F 00 FF FF FF
  can1  18FEF131   [8]  F3 FF FF C3 CC FF FF F0
  can1  18FEF031   [8]  FF FF FF FF FF FC CC FF
  can1  18FF4831   [8]  00 00 FF FF 00 00 00 00
  can1  18FEF231   [8]  FF FF FF FF FF FF FF FF
  can1  0CF00331   [8]  FF FF FF FF FF FF FF FF
  can1  0CF00400   [8]  48 D9 C2 15 3C 00 0F C2
  can1  18F0010B   [8]  CF FF F0 FF FF CD FF FF
  can1  0CF00203   [8]  C1 01 0D FF F7 93 28 03
  can1  0CF00A00   [8]  00 00 37 2E FF FF FF FF
  can1  0CF00C03   [8]  D4 04 01 3C FF FF FF FF
  can1  18FD9400   [8]  00 00 FF FF FF FF FF FF
  can1  18FEDD00   [8]  FF 65 53 FF FF FF FF FF
  can1  18F00E00   [8]  B4 4E FF FF D5 9F FF FF
  can1  18F03300   [8]  FF FF FF FF FF FF FF FF
  can1  18FEDF00   [8]  90 A0 28 7D 7D FF FF F1
  can1  0C010305   [8]  FF FF FF FF FF F3 FF FF
  can1  18FEBF0B   [8]  A0 0E 7D 7D 81 85 FF FF
  can1  0CF00203   [8]  C1 21 0D FF F7 F0 28 03
  can1  18FEE000   [8]  25 92 00 00 6E FB 34 00
  can1  0CF00300   [8]  D4 F9 4F FF FF 4F AD 87
  can1  18FEF200   [8]  09 02 0F 01 79 09 E1 FF
  can1  18F00F00   [8]  FF FF FF FF FF FF FF FF
  can1  0CF00400   [8]  48 D9 C3 7A 3C 00 0F C3
  can1  0CF00203   [8]  C1 21 0D FF F7 F0 28 03
  can1  18FEE400   [8]  FF 3F FC FC 00 7F FF FF
  can1  0CF00C03   [8]  D0 04 56 3C FF FF FF FF
  can1  18F00503   [8]  7E 1E 0C 7E 35 20 31 43
  can1  18FE4A03   [8]  03 0F 4F FF FF F3 FF FF
  can1  18FEDF00   [8]  90 A0 28 7D 7D FF FF F1
  can1  10FCFD00   [8]  FF FF FF FF 20 8A FF FF
  can1  0CFD9200   [8]  F4 FF FF FF FF FF FF FF
  can1  0CF00203   [8]  C1 39 0D FF F7 54 29 03
  can1  0CF00300   [8]  D4 F9 50 FF FF 4F B0 87
  can1  18F00100   [8]  FF FF FF FF FF FF FF FF
  can1  0CF00400   [8]  28 D9 C4 E2 3C 00 0F C4
  can1  0CF00203   [8]  C1 39 0D FF F7 54 29 03
  can1  0CF00C03   [8]  CE 04 35 3D FF FF FF FF
  can1  0CF00331   [8]  FF FF FF FF FF FF FF FF
  can1  18FEDF00   [8]  90 A0 28 7D 7D FF FF F1
  can1  0CF00203   [8]  C1 52 0D FF F7 A7 29 03
  can1  0CF00300   [8]  D4 F9 51 FF FF 4F B2 87
  can1  0CF00A00   [8]  00 00 63 2F FF FF FF FF
  can1  18FEF000   [8]  FF FF FF C0 2B FF FF FF
  can1  18FEBD00   [8]  00 F0 FF FF FF FF FF FF
  can1  18F00E00   [8]  D8 4E FF FF D5 9F FF FF
  can1  18F03300   [8]  FF FF FF FF FF FF FF FF
  can1  0C010305   [8]  FF FF FF FF FF F3 FF FF
  can1  0CF00400   [8]  28 D9 C5 F5 3C 00 0F C5
  can1  0CF00203   [8]  C1 52 0D FF F7 A7 29 03
  can1  18FCF200   [8]  E1 FF FF FF FF FF FF FF
  can1  0CF00C03   [8]  CB 04 D6 3C FF FF FF FF
  can1  18FEDF00   [8]  90 A0 28 7D 7D FF FF F1
  can1  18E0FF00   [8]  00 FF FF FF FF FF FF FF
  can1  18F00F00   [8]  FF FF FF FF FF FF FF FF
  can1  0CF00203   [8]  C1 75 0D FF F7 1B 2A 03
  can1  0CF00300   [8]  D4 FA 52 FF FF 4F B4 87
  can1  18FEF100   [8]  FF B4 0E FC FF 44 00 CF
  can1  18FEEE00   [8]  87 FF FF FF FF FF FF FF
  can1  0CF00400   [8]  28 D9 C6 53 3D 00 0F C6
  can1  0CF00203   [8]  C1 75 0D FF F7 1B 2A 03
  can1  10FDA300   [8]  FF FF 43 FF FF FF FF FF
  can1  0CF00C03   [8]  C9 04 1E 3D FF FF FF FF
  can1  18F00029   [8]  F0 7D 7D F3 29 FF FF 32
  can1  18FEDF00   [8]  90 A0 28 7D 7D FF FF F1
  can1  0CF00203   [8]  C1 9F 0D FF F7 83 2A 03
  can1  18FCDC00   [8]  9F FF FF FF E0 44 B4 0E
  can1  0CF00300   [8]  D4 FA 53 FF FF 4F B7 87
  can1  1CFE9200   [8]  FF A8 EC FF FF FF EA 00
  can1  18FEF500   [8]  A8 FF FF 33 25 FF FF FF
  can1  18F00131   [8]  FF FF FF 3F 00 FF FF FF
  can1  18FEF131   [8]  F3 FF FF C3 CC FF FF F0
  can1  18FEF031   [8]  FF FF FF FF FF FC CC FF
  can1  18FF4831   [8]  00 00 FF FF 00 00 00 00
  can1  18FEF231   [8]  FF FF FF FF FF FF FF FF
  can1  0CF00331   [8]  FF FF FF FF FF FF FF FF
  can1  0CF00400   [8]  48 D9 C7 A5 3D 00 0F C7
  can1  0CF00203   [8]  C1 9F 0D FF F7 83 2A 03
  can1  18F0010B   [8]  CF FF F0 FF FF CD FF FF
  can1  0CF00C03   [8]  C2 04 7D 3D FF FF FF FF
  can1  14FC9800   [8]  FF 00 00 00 00 00 00 FF
  can1  0CF00A00   [8]  00 00 09 31 FF FF FF FF
  can1  18FD9400   [8]  00 00 FF FF FF FF FF FF
  can1  18F00E00   [8]  28 4F FF FF D5 9F FF FF
  can1  18F03300   [8]  FF FF FF FF FF FF FF FF
  can1  18FEDF00   [8]  91 A0 28 7D 7D FF FF F1
  can1  0C010305   [8]  FF FF FF FF FF F3 FF FF
  can1  0CF00203   [8]  C1 C8 0D FF F7 1C 2B 03
  can1  18FEBF0B   [8]  60 0F 7D 7D 85 85 FF FF
  can1  18FEE000   [8]  25 92 00 00 6E FB 34 00
  can1  0CF00300   [8]  D4 FA 54 FF FF 4F BA 87
  can1  18FEA400   [8]  FF FF 6B 2A FF FF 96 2C
  can1  18FDB400   [8]  E6 43 D9 3F FF FF FF FF
  can1  18FEF200   [8]  5F 02 F3 00 78 09 E1 FF
  can1  18F00F00   [8]  FF FF FF FF FF FF FF FF
  can1  0CF00400   [8]  48 D9 C8 CC 3D 00 0F C8
  can1  0C000003   [8]  EB FF FA E1 FF F5 FF FF
  can1  0CF00203   [8]  C1 C8 0D FF F7 1C 2B 03
  can1  0CF00C03   [8]  BF 04 AA 3D FF FF FF FF
  can1  18F00503   [8]  7E 1E 0C 7E 35 20 31 43
  can1  18FE4A03   [8]  03 0F 4F FF FF F3 FF FF
  can1  18FEDF00   [8]  91 A0 28 7D 7D FF FF F1
  can1  10FCFD00   [8]  FF FF FF FF C9 8B FF FF
  can1  0C000003   [8]  E8 FF FA E2 FF F5 FF FF
  can1  0CF00300   [8]  D4 FA 55 FF FF 4F BC 88
  can1  0CF00203   [8]  C1 F0 0D FF F7 6B 2B 03
  can1  18FD7C00   [8]  F8 83 00 00 C3 0F 03 FF
  can1  18F00100   [8]  FF FF FF FF FF FF FF FF
  can1  0CF00400   [8]  68 D9 C5 26 3E 00 0F C6
  can1  0CF00203   [8]  C1 F0 0D FF F7 6B 2B 03
  can1  18FDB300   [8]  FF FF 89 3E FF FF FF FF
  can1  0CF00C03   [8]  BC 04 00 3E FF FF FF FF
  can1  0CF00331   [8]  FF FF FF FF FF FF FF FF
  can1  18FEDF00   [8]  91 A0 28 7D 7D FF FF F1
  can1  0CF00203   [8]  C1 0C 0E FF F7 D0 2B 03
  can1  0CF00300   [8]  D4 FA 52 FF FF 4F B5 88
  can1  0CF00A00   [8]  00 00 64 32 FF FF FF FF
  can1  18FEF000   [8]  FF FF FF C0 2B FF FF FF
  can1  18F00E00   [8]  32 4F FF FF D5 9F FF FF
  can1  18F03300   [8]  FF FF FF FF FF FF FF FF
  can1  18FE9A00   [8]  72 26 FF FF FF FF FF FF
  can1  0C010305   [8]  FF FF FF FF FF F3 FF FF
  can1  0CF00400   [8]  28 D9 C7 82 3E 00 0F C7
  can1  0CF00203   [8]  C1 0C 0E FF F7 D0 2B 03
  can1  18FDB200   [8]  FF FF FF FF 20 00 FF FF
  can1  0CF00C03   [8]  BA 04 64 3E FF FF FF FF
  can1  18FCF200   [8]  E1 FF FF FF FF FF FF FF
  can1  18FEDF00   [8]  91 A0 28 7D 7D FF FF F1
  can1  18F00F00   [8]  FF FF FF FF FF FF FF FF
  can1  0CF00203   [8]  C1 26 0E FF F7 2B 2C 03
  can1  0CF00300   [8]  D4 FA 53 FF FF 4F B9 88
  can1  18FEF100   [8]  FF 54 0F FC FF 44 00 CF
  can1  0CF00400   [8]  28 D9 C8 8F 3E 00 0F C8
  can1  0CF00203   [8]  C1 26 0E FF F7 2B 2C 03
  can1  10FDA300   [8]  FF FF 47 FF FF FF FF FF
  can1  0CF00C03   [8]  B8 04 82 3E FF FF FF FF
  can1  18FE9900   [8]  FF FF FF FF FF FF FF FF
  can1  18F00029   [8]  F0 7D 7D F3 29 FF FF 32
  can1  18FD8C00   [8]  FF FF 21 00 FF FF FF FF
  can1  18FEDF00   [8]  91 A0 28 7D 7D FF FF F1
  can1  0CF00203   [8]  C1 47 0E FF F7 A8 2C 03
  can1  18FCDC00   [8]  9F FF FF FF E0 44 54 0F
  can1  0CF00300   [8]  D4 FA 54 FF FF 4F BB 88
  can1  1CFE9200   [8]  FF 74 F1 FF FF FF F2 00
  can1  18F00131   [8]  FF FF FF 3F 00 FF FF FF
  can1  18FEF131   [8]  F3 FF FF C3 CC FF FF F0
  can1  18FEF031   [8]  FF FF FF FF FF FC CC FF
  can1  18FF4831   [8]  00 00 FF FF 00 00 00 00
  can1  18FEF231   [8]  FF FF FF FF FF FF FF FF
  can1  0CF00331   [8]  FF FF FF FF FF FF FF FF
  can1  0CF00400   [8]  18 D9 C8 F4 3E 00 0F C8
  can1  0CF00203   [8]  C1 47 0E FF F7 A8 2C 03
  can1  18F0010B   [8]  CF FF F0 FF FF CD FF FF
  can1  0CF00A00   [8]  00 00 38 34 FF FF FF FF
  can1  0CF00C03   [8]  B3 04 C9 3E FF FF FF FF
  can1  18FD9400   [8]  00 00 FF FF FF FF FF FF
  can1  18FEFC00   [8]  FF FF FF FF FF FF FF FF
  can1  18F00E00   [8]  40 4F FF FF D5 9F FF FF
  can1  18FD2000   [8]  E6 43 FF FF FF FF FF FF
  can1  18F03300   [8]  FF FF FF FF FF FF FF FF
  can1  0C010305   [8]  FF FF FF FF FF F3 FF FF
  can1  18FEDF00   [8]  91 A0 28 7D 7D FF FF F1
  can1  0CF00203   [8]  C1 6B 0E FF F7 1D 2D 03
  can1  18FEBF0B   [8]  40 10 7B 7D 85 85 FF FF
  can1  18FEE000   [8]  25 92 00 00 6E FB 34 00
  can1  0CF00300   [8]  D4 FA 54 FF FF 4F BB 88
  can1  18FEF200   [8]  42 02 0F 01 78 09 E1 FF
  can1  18F00F00   [8]  FF FF FF FF FF FF FF FF
  can1  0CF00400   [8]  58 D9 C9 4D 3F 00 0F CA
  can1  0C000003   [8]  EB FF FA E2 FF F5 FF FF
  can1  0CF00203   [8]  C1 6B 0E FF F7 1D 2D 03
  can1  0CF00C03   [8]  AF 04 24 3F FF FF FF FF
  can1  18F00503   [8]  7E 1E 0C 7E 35 20 31 43
  can1  18FE4A03   [8]  03 0F 4F FF FF F3 FF FF
  can1  18FEDF00   [8]  91 A0 28 7D 7D FF FF F1
  can1  10FCFD00   [8]  FF FF FF FF AC 8C FF FF
  can1  0C000003   [8]  EB FF FA E2 FF F5 FF FF
  can1  18FD3E00   [8]  80 3A FF E0 34 FF FF FF
  can1  0CF00203   [8]  C1 91 0E FF F7 7E 2D 03
  can1  0CF00300   [8]  D4 FA 55 FF FF 4F BF 88
  can1  18F00100   [8]  FF FF FF FF FF FF FF FF
  can1  0CF00400   [8]  48 D9 CA 6D 3F 03 0F CA
  can1  0C000003   [8]  EB FF FA E2 FF F5 FF FF
  can1  0CF00203   [8]  C1 91 0E FF F7 7E 2D 03
  can1  0CF00C03   [8]  AC 04 48 3F FF FF FF FF
  can1  0CF00331   [8]  FF FF FF FF FF FF FF FF
  can1  18FEDF00   [8]  91 A0 28 7D 7D FF FF F1
  can1  0C000003   [8]  EB FF FA E2 FF F5 FF FF
  can1  18FD4000   [8]  FF 3F 00 FF FF FF FF FF
  can1  0CF00203   [8]  C1 CF 0E FF F7 FB 2D 03
  can1  0CF00300   [8]  D4 FA 57 FF FF 4F C1 88
  can1  0CF00A00   [8]  00 00 E8 35 FF FF FF FF
  can1  18FEF000   [8]  FF FF FF C0 2B FF FF FF
  can1  18F00E00   [8]  40 4F FF FF D5 9F FF FF
  can1  18FECA00   [8]  03 FF 00 00 00 00 FF FF
  can1  18F03300   [8]  FF FF FF FF FF FF FF FF
  can1  0C010305   [8]  FF FF FF FF FF F3 FF FF
  can1  0CF00400   [8]  78 D9 CA DB 3F 03 0F CB
  can1  0C000003   [8]  EB FF FA E2 FF F5 FF FF
  can1  18FCF200   [8]  E1 FF FF FF FF FF FF FF
  can1  0CF00203   [8]  C1 CF 0E FF F7 FB 2D 03
  can1  0CF00C03   [8]  A8 04 9F 3F FF FF FF FF
  can1  18FEDF00   [8]  92 A0 28 7D 7D FF FF F1
  can1  18F00F00   [8]  FF FF FF FF FF FF FF FF
  can1  0C000003   [8]  EB FF FA E2 FF F5 FF FF
  can1  0CF00300   [8]  D4 FA 57 FF FF 4F C2 88
  can1  0CF00203   [8]  C1 E5 0E FF F7 5F 2E 03
  can1  18FEF100   [8]  FF 48 10 FC FF 44 00 CF
  can1  18FCC500   [8]  80 3A FF FF FF FF FF FF
  can1  0CFD9200   [8]  F4 FF FF FF FF FF FF FF
  can1  0CF00400   [8]  28 D9 CC 3D 40 03 0F CC
  can1  0C000003   [8]  EB FF FA E2 FF F5 FF FF
  can1  10FDA300   [8]  FF FF 48 FF FF FF FF FF
  can1  0CF00203   [8]  C1 E5 0E FF F7 5F 2E 03
  can1  18F00029   [8]  F0 7D 7D F3 29 FF FF 32
  can1  0CF00C03   [8]  A5 04 01 40 FF FF FF FF
  can1  18FEDF00   [8]  92 A0 28 7D 7D FF FF F1
  can1  0C000003   [8]  EB FF FA E3 FF F5 FF FF
  can1  18FCDC00   [8]  9F FF FF FF E0 44 48 10
  can1  0CF00203   [8]  C1 FF 0E FF F7 CA 2E 03
  can1  0CF00300   [8]  D4 FA 58 FF FF 4F C6 88
  can1  1CFE9200   [8]  FF 28 F6 FF FF FF 0A 01
  can1  18F00131   [8]  FF FF FF 3F 00 FF FF FF
  can1  18FEF131   [8]  F3 FF FF C3 CC FF FF F0
  can1  18FEF031   [8]  FF FF FF FF FF FC CC FF
  can1  18FF4831   [8]  00 00 FF FF 00 00 00 00
  can1  18FEF231   [8]  FF FF FF FF FF FF FF FF
  can1  0CF00331   [8]  FF FF FF FF FF FF FF FF
  can1  0CF00400   [8]  38 D9 CD 69 40 03 0F CD
  can1  0C000003   [8]  EB FF FA E3 FF F5 FF FF
  can1  0CF00203   [8]  C1 FF 0E FF F7 CA 2E 03
  can1  0CF00A00   [8]  00 00 EB 37 FF FF FF FF
  can1  0CF00C03   [8]  A2 04 36 40 FF FF FF FF
  can1  18F0010B   [8]  CF FF F0 FF FF CD FF FF
  can1  18FD9400   [8]  00 00 FF FF FF FF FF FF
  can1  18FEEF00   [8]  FF FF FF 57 E8 7D FF FA
  can1  18F00E00   [8]  40 4F FF FF D5 9F FF FF
  can1  18F03300   [8]  FF FF FF FF FF FF FF FF
  can1  0C010305   [8]  FF FF FF FF FF F3 FF FF
  can1  18FEDF00   [8]  92 A0 28 7D 7D FF FF F1
  can1  0C000003   [8]  EB FF FA E3 FF F5 FF FF
  can1  18FEE000   [8]  25 92 00 00 6E FB 34 00
  can1  0CF00203   [8]  C1 2C 0F FF F7 42 2F 03
  can1  0CF00300   [8]  D4 F9 59 FF FF 4F C8 88
  can1  18FEBF0B   [8]  F0 10 7E 7C 86 86 FF FF
  can1  18FEF200   [8]  9A 02 F4 00 79 09 E1 FF
  can1  18F00F00   [8]  FF FF FF FF FF FF FF FF
  can1  0CF00400   [8]  68 D9 CD CC 40 03 0F CE
  can1  0C000003   [8]  EB FF FA E3 FF F5 FF FF
  can1  18FEDB00   [8]  FF FF E4 7F FF FF FF FF
  can1  0CF00203   [8]  C1 2C 0F FF F7 42 2F 03
  can1  0CF00C03   [8]  9F 04 9E 40 FF FF FF FF
  can1  18F00503   [8]  7E 1E 0C 7E 35 20 31 43
  can1  18FE4A03   [8]  03 0F 4F FF FF F3 FF FF
  can1  18FEDF00   [8]  92 A0 28 7D 7D FF FF F1
  can1  10FCFD00   [8]  FF FF FF FF 59 90 FF FF
  can1  0C000003   [8]  EB FF FA E3 FF F5 FF FF
  can1  0CF00300   [8]  D4 F9 5A FF FF 4F C9 88
  can1  0CF00203   [8]  C1 42 0F FF F7 A5 2F 03
  can1  18F00100   [8]  FF FF FF FF FF FF FF FF
  can1  0CF00400   [8]  08 D9 CF 30 41 03 0F CF
  can1  0C000003   [8]  EB FF FA E3 FF F5 FF FF
  can1  18FEF600   [8]  FF 33 62 FF FF FF FF FF
  can1  0CF00203   [8]  C1 42 0F FF F7 A5 2F 03
  can1  0CF00C03   [8]  9C 04 FE 40 FF FF FF FF
  can1  0CF00331   [8]  FF FF FF FF FF FF FF FF
  can1  18FEDF00   [8]  92 A0 28 7D 7D FF FF F1
  can1  0C000003   [8]  EB FF FA E3 FF F5 FF FF
  can1  0CF00203   [8]  C1 77 0F FF F7 0E 30 03
  can1  0CF00300   [8]  D4 F8 5B FF FF 4F CC 89
  can1  0CF00A00   [8]  00 00 62 39 FF FF FF FF
  can1  18FEF000   [8]  FF FF FF C0 2B FF FF FF
  can1  18F00E00   [8]  3C 4F FF FF D5 9F FF FF
  can1  18F03300   [8]  FF FF FF FF FF FF FF FF
  can1  0C010305   [8]  FF FF FF FF FF F3 FF FF
  can1  0CF00400   [8]  18 D9 D0 3F 41 03 0F D0
  can1  0C000003   [8]  EB FF FA E3 FF F5 FF FF
  can1  18FCF200   [8]  E1 FF FF FF FF FF FF FF
  can1  0CF00203   [8]  C1 77 0F FF F7 0E 30 03
  can1  0CF00C03   [8]  9B 04 2C 41 FF FF FF FF
  can1  18FEDF00   [8]  92 A0 28 7D 7D FF FF F1
  can1  18FDC600   [8]  FC 04 FF FF FF FF FF FF
  can1  18F00F00   [8]  FF FF FF FF FF FF FF FF
  can1  0C000003   [8]  EB FF FA E3 FF F5 FF FF
  can1  0CF00300   [8]  D4 F9 5C FF FF 4F CF 89
  can1  0CF00203   [8]  C1 A0 0F FF F7 72 30 03
  can1  18FEF100   [8]  FF E4 10 FC FF 44 00 CF
  can1  0CF00400   [8]  68 D9 D0 A9 41 03 0F D1
  can1  0C000003   [8]  EB FF FA E3 FF F5 FF FF
  can1  10FDA300   [8]  FF FF 4C FF FF FF FF FF
  can1  0CF00203   [8]  C1 A0 0F FF F7 72 30 03
  can1  18F00029   [8]  F0 7D 7D F3 29 FF FF 31
  can1  0CF00C03   [8]  99 04 93 41 FF FF FF FF
  can1  18FEDF00   [8]  93 A0 28 7D 7D FF FF F1
  can1  0C000003   [8]  EB FF FA E3 FF F5 FF FF
  can1  0CF00203   [8]  C1 AE 0F FF F7 C1 30 03
  can1  18FCDC00   [8]  9F FF FF FF E0 44 E4 10
  can1  0CF00300   [8]  D4 F9 5C FF FF 4F D1 89
  can1  1CFE9200   [8]  FF FF FA FF FF FF 24 01
  can1  18F00131   [8]  FF FF FF 3F 00 FF FF FF
  can1  18FEF131   [8]  F3 FF FF C3 CC FF FF F0
  can1  18FEF031   [8]  FF FF FF FF FF FC CC FF
  can1  18FF4831   [8]  00 00 FF FF 00 00 00 00
  can1  18FEF231   [8]  FF FF FF FF FF FF FF FF
  can1  0CF00331   [8]  FF FF FF FF FF FF FF FF
  can1  0CF00400   [8]  78 D9 D1 47 42 03 0F D2
  can1  0C000003   [8]  EB FF FA E3 FF F5 FF FF
  can1  0CF00203   [8]  C1 AE 0F FF F7 C1 30 03
  can1  0CF00A00   [8]  00 00 66 3B FF FF FF FF
  can1  0CF00C03   [8]  97 04 1A 42 FF FF FF FF
  can1  18F0010B   [8]  CF FF F0 FF FF CD FF FF
  can1  18FD9400   [8]  00 00 FF FF FF FF FF FF
  can1  18F00E00   [8]  F0 4E FF FF D5 9F FF FF
  can1  18F03300   [8]  FF FF FF FF FF FF FF FF
  can1  18FEDF00   [8]  93 A0 28 7D 7D FF FF F1
  can1  0C010305   [8]  FF FF FF FF FF F3 FF FF
  can1  0C000003   [8]  EB FF FA E4 FF F5 FF FF
  can1  18FEE000   [8]  25 92 00 00 6E FB 34 00
  can1  0CF00203   [8]  C1 CD 0F FF F7 55 31 03
  can1  0CF00300   [8]  D4 F9 5D FF FF 4F D4 89
  can1  18FEBF0B   [8]  C0 11 7D 7D 87 85 FF FF
  can1  18FEF200   [8]  B2 02 FA 00 78 09 E1 FF
  can1  18F00F00   [8]  FF FF FF FF FF FF FF FF
  can1  0CF00400   [8]  08 D9 D3 81 42 03 0F D3
  can1  0C000003   [8]  EB FF FA E4 FF F5 FF FF
  can1  0CF00203   [8]  C1 CD 0F FF F7 55 31 03
  can1  0CF00C03   [8]  96 04 78 42 FF FF FF FF
  can1  18F00503   [8]  7E 1E 0C 7E 35 20 31 43
  can1  18FE4A03   [8]  03 0F 4F FF FF F3 FF FF
  can1  18FEDF00   [8]  93 A0 28 7D 7D FF FF F1
  can1  10FCFD00   [8]  FF FF FF FF A9 94 FF FF
  can1  0C000003   [8]  EB FF FA E4 FF F5 FF FF
  can1  0CF00300   [8]  D4 F9 5E FF FF 4F D6 89
  can1  0CF00203   [8]  C1 FD 0F FF F7 CA 31 03
  can1  18F00100   [8]  FF FF FF FF FF FF FF FF
  can1  0CF00400   [8]  28 D9 D4 E9 42 03 0F D4
  can1  0C000003   [8]  EB FF FA E4 FF F5 FF FF
  can1  0CF00203   [8]  C1 FD 0F FF F7 CA 31 03
  can1  0CF00C03   [8]  90 04 F4 42 FF FF FF FF
  can1  0CF00331   [8]  FF FF FF FF FF FF FF FF
  can1  18FEDF00   [8]  93 A0 28 7D 7D FF FF F1
  can1  0C000003   [8]  EB FF FA E4 FF F5 FF FF
  can1  0CF00300   [8]  D4 F9 5F FF FF 4F DA 8A
  can1  0CF00203   [8]  C1 2F 10 FF F7 7F 32 03
  can1  0CF00A00   [8]  00 00 B4 3D FF FF FF FF
  can1  18FEF000   [8]  FF FF FF C0 2B FF FF FF
  can1  18F00E00   [8]  9C 4E FF FF D5 9F FF FF
  can1  18F03300   [8]  FF FF FF FF FF FF FF FF
  can1  0C010305   [8]  FF FF FF FF FF F3 FF FF
  can1  0CF00400   [8]  58 D9 D4 3D 43 03 0F D5
  can1  0C000003   [8]  EB FF FA E4 FF F5 FF FF
  can1  18FCF200   [8]  E1 FF FF FF FF FF FF FF
  can1  0CF00203   [8]  C1 2F 10 FF F7 7F 32 03
  can1  0CF00C03   [8]  8F 04 55 43 FF FF FF FF
  can1  18FEDF00   [8]  94 A0 28 7D 7D FF FF F1
  can1  18F00F00   [8]  FF FF FF FF FF FF FF FF
  can1  0C000003   [8]  EB FF FA E4 FF F5 FF FF
  can1  0CF00300   [8]  D4 F9 5F FF FF 4F DB 8A
  can1  0CF00203   [8]  C1 69 10 FF F7 F4 32 03
  can1  18FEF100   [8]  FF E0 11 FC FF 44 00 CF
  can1  0CF00400   [8]  18 DA D6 87 43 03 0F D6
  can1  0C000003   [8]  EB FF FA E4 FF F5 FF FF
  can1  10FDA300   [8]  FF FF 53 FF FF FF FF FF
  can1  0CF00203   [8]  C1 69 10 FF F7 F4 32 03
  can1  18F00029   [8]  F0 7D 7D F3 29 FF FF 31
  can1  0CF00C03   [8]  8A 04 9F 43 FF FF FF FF
  can1  18FEDF00   [8]  94 A0 28 7D 7D FF FF F1
  can1  0C000003   [8]  EB FF FA E5 FF F5 FF FF
  can1  18FCDC00   [8]  9F FF FF FF E0 44 E0 11
  can1  0CF00203   [8]  C1 9F 10 FF F7 8C 33 03
  can1  0CF00300   [8]  D4 F9 61 FF FF 4F DE 8A
  can1  1CFE9200   [8]  FF FF FA FF FF FF 40 01
  can1  18F00131   [8]  FF FF FF 3F 00 FF FF FF
  can1  18FEF131   [8]  F3 FF FF C3 CC FF FF F0
  can1  18FEF031   [8]  FF FF FF FF FF FC CC FF
  can1  18FF4831   [8]  00 00 FF FF 00 00 00 00
  can1  18FEF231   [8]  FF FF FF FF FF FF FF FF
  can1  0CF00331   [8]  FF FF FF FF FF FF FF FF
  can1  0CF00400   [8]  78 DA D7 F7 43 03 0F D8
  can1  0C000003   [8]  EB FF FA E5 FF F5 FF FF
  can1  0CF00203   [8]  C1 9F 10 FF F7 8C 33 03
  can1  0CF00A00   [8]  00 00 32 40 FF FF FF FF
  can1  0CF00C03   [8]  84 04 17 44 FF FF FF FF
  can1  18F0010B   [8]  CF FF F0 FF FF CD FF FF
  can1  18FD9400   [8]  00 00 FF FF FF FF FF FF
  can1  18F00E00   [8]  7C 4D FF FF D5 9F FF FF
  can1  18F03300   [8]  FF FF FF FF FF FF FF FF
  can1  0C010305   [8]  FF FF FF FF FF F3 FF FF
  can1  18FEDF00   [8]  94 A0 28 7D 7D FF FF F1
  can1  0C000003   [8]  EB FF FA E5 FF F5 FF FF
  can1  18FEE000   [8]  25 92 00 00 6E FB 34 00
  can1  0CF00203   [8]  C1 C1 10 FF F7 28 34 03
  can1  0CF00300   [8]  D4 F9 62 FF FF 4F E3 8A
  can1  18FEBF0B   [8]  A0 12 7D 7D 87 87 FF FF
  can1  18FEF200   [8]  25 03 DE 00 78 09 E1 FF
  can1  18F00F00   [8]  FF FF FF FF FF FF FF FF
  can1  0CF00400   [8]  28 DA D8 64 44 03 0F D8
  can1  0C000003   [8]  EB FF FA E5 FF F5 FF FF
  can1  0CF00203   [8]  C1 C1 10 FF F7 28 34 03
  can1  0CF00C03   [8]  83 04 6B 44 FF FF FF FF
  can1  18F00503   [8]  7E 1E 0C 7E 35 20 31 43
  can1  18FE4A03   [8]  03 0F 4F FF FF F3 FF FF
  can1  18FEDF00   [8]  94 A0 28 7D 7D FF FF F1
  can1  10FCFD00   [8]  FF FF FF FF 1C 98 FF FF
  can1  0CFD9200   [8]  F4 FF FF FF FF FF FF FF
  can1  0C000003   [8]  EB FF FA E5 FF F5 FF FF
  can1  0CF00203   [8]  C1 EA 10 FF F7 A1 34 03
  can1  0CF00300   [8]  D4 F8 63 FF FF 4F E4 8A
  can1  18F00100   [8]  FF FF FF FF FF FF FF FF
  can1  0CF00400   [8]  61 D9 D8 F2 44 03 0F D9
  can1  0C000003   [8]  EB FF FA E5 FF F5 FF FF
  can1  0CF00203   [8]  C1 EA 10 FF F7 A1 34 03
  can1  0CF00C03   [8]  7E 04 E0 44 FF FF FF FF
  can1  0CF00331   [8]  FF FF FF FF FF FF FF FF
  can1  18FEDF00   [8]  94 A0 28 7D 7D FF FF F1
  can1  0C000003   [8]  EB FF FA E5 FF F5 FF FF
  can1  0CF00203   [8]  C1 1A 11 FF F7 2F 35 03
  can1  0CF00300   [8]  D4 F1 63 FF FF 4F E5 8A
  can1  0CF00A00   [8]  00 00 77 42 FF FF FF FF
  can1  18FEF000   [8]  FF FF FF C0 2B FF FF FF
  can1  18F00E00   [8]  6C 4D FF FF D5 9F FF FF
  can1  18F03300   [8]  FF FF FF FF FF FF FF FF
  can1  0C010305   [8]  FF FF FF FF FF F3 FF FF
  can1  0CF00400   [8]  51 D6 D5 A0 45 03 0F D6
  can1  0C000003   [8]  EB FF FA E5 FF F5 FF FF
  can1  18FCF200   [8]  E1 FF FF FF FF FF FF FF
  can1  0CF00203   [8]  C1 1A 11 FF F7 2F 35 03
  can1  0CF00C03   [8]  7A 04 86 45 FF FF FF FF
  can1  18FEDF00   [8]  95 A0 28 7D 7D FF FF F1
  can1  18F00F00   [8]  FF FF FF FF FF FF FF FF
  can1  0C000003   [8]  EB FF FA E5 FF F5 FF FF
  can1  18FD0700   [8]  03 0C FC FF FF FF FF FF
  can1  0CF00203   [8]  C1 4B 11 FF F7 DF 35 03
  can1  0CF00300   [8]  D4 E9 60 FF FF 4F E5 8A
  can1  18FEF100   [8]  FF A4 12 FC FF 44 00 CF
  can1  0CF00400   [8]  01 D2 D2 00 46 03 0F D2
  can1  0C000003   [8]  EB FF FA E5 FF F5 FF FF
  can1  10FDA300   [8]  FF FF 56 FF FF FF FF FF
  can1  0CF00203   [8]  C1 4B 11 FF F7 DF 35 03
  can1  18F00029   [8]  F0 7D 7D F3 29 FF FF 30
  can1  0CF00C03   [8]  7A 04 C3 45 FF FF FF FF
  can1  18FEDF00   [8]  95 A0 28 7D 7D FF FF F1
  can1  0C000003   [8]  EB FF FA E6 FF F5 FF FF
  can1  0CF00203   [8]  C1 81 11 FF F7 51 36 03
  can1  18FCDC00   [8]  9F FF FF FF E0 44 A4 12
  can1  0CF00300   [8]  D0 E2 5C FF FF 4F E5 8B
  can1  1CFE9200   [8]  FF FF FA FF FF FF 5C 01
  can1  18F00131   [8]  FF FF FF 3F 00 FF FF FF
  can1  18FEF131   [8]  F3 FF FF C3 CC FF FF F0
  can1  18FEF031   [8]  FF FF FF FF FF FC CC FF
  can1  18FF4831   [8]  00 00 FF FF 00 00 00 00
  can1  18FEF231   [8]  FF FF FF FF FF FF FF FF
  can1  0CF00331   [8]  FF FF FF FF FF FF FF FF
  can1  0CF00400   [8]  71 CF CE 32 46 03 0F CF
  can1  0C000003   [8]  EB FF FA E6 FF F5 FF FF
  can1  0CF00203   [8]  C1 81 11 FF F7 51 36 03
  can1  14FC9800   [8]  FF 00 00 00 00 00 00 FF
  can1  0CF00C03   [8]  76 04 11 46 FF FF FF FF
  can1  0CF00A00   [8]  00 00 11 45 FF FF FF FF
  can1  18F0010B   [8]  CF FF F0 FF FF CD FF FF
  can1  18FD9400   [8]  00 00 FF FF FF FF FF FF
  can1  18F00E00   [8]  1E 4C FF FF D5 9F FF FF
  can1  18F03300   [8]  FF FF FF FF FF FF FF FF
  can1  0C010305   [8]  FF FF FF FF FF F3 FF FF
  can1  18FEDF00   [8]  95 A0 28 7D 7D FF FF F1
  can1  0C000003   [8]  EB FF FA E6 FF F5 FF FF
  can1  18FEE000   [8]  25 92 00 00 6E FB 34 00
  can1  0CF00203   [8]  C1 A0 11 FF F7 A6 36 03
  can1  0CF00300   [8]  D0 DD 59 FF FF 4F E5 8B
  can1  18FEBF0B   [8]  70 13 7E 7C 88 88 FF FF
  can1  18FDB400   [8]  C0 44 F3 3F FF FF FF FF
  can1  18FEF200   [8]  58 03 DE 00 79 09 E1 FF
  can1  18F00F00   [8]  FF FF FF FF FF FF FF FF
  can1  0CF00400   [8]  71 CD CC 86 46 03 0F CD
  can1  0C000003   [8]  EB FF FA E6 FF F5 FF FF
  can1  0CF00203   [8]  C1 A0 11 FF F7 A6 36 03
  can1  0CF00C03   [8]  74 04 5A 46 FF FF FF FF
  can1  18F00503   [8]  7E 1E 0C 7E 35 20 31 43
  can1  18FE4A03   [8]  03 0F 4F FF FF F3 FF FF
  can1  18FEDF00   [8]  95 A0 28 7D 7D FF FF F1
  can1  10FCFD00   [8]  FF FF FF FF 93 98 FF FF
  can1  0C000003   [8]  EB FF FA E6 FF F5 FF FF
  can1  0CF00300   [8]  D0 DC 56 FF FF 4F E5 8B
  can1  0CF00203   [8]  C1 AD 11 FF F7 F4 36 03
  can1  18F00100   [8]  FF FF FF FF FF FF FF FF
  can1  0CF00400   [8]  61 CD CC 44 46 03 0F CD
  can1  0C000003   [8]  EB FF FA E6 FF F5 FF FF
  can1  18FDB300   [8]  FF FF 93 3E FF FF FF FF
  can1  0CF00203   [8]  C1 AD 11 FF F7 F4 36 03
  can1  0CF00C03   [8]  74 04 45 46 FF FF FF FF
  can1  0CF00331   [8]  FF FF FF FF FF FF FF FF
  can1  18FEDF00   [8]  95 A0 28 7D 7D FF FF F1
  can1  0C000003   [8]  EB FF FA E6 FF F5 FF FF
  can1  0CF00300   [8]  D0 DD 56 FF FF 4F E5 8B
  can1  0CF00203   [8]  C1 B7 11 FF F7 15 37 03
  can1  0CF00A00   [8]  77 01 C3 45 FF FF FF FF
  can1  18FEF000   [8]  FF FF FF C0 2B FF FF FF
  can1  18F00E00   [8]  A2 4B FF FF D5 9F FF FF
  can1  18F03300   [8]  FF FF FF FF FF FF FF FF
  can1  0C010305   [8]  FF FF FF FF FF F3 FF FF
  can1  0CF00400   [8]  51 CD CC EA 45 03 0F CD
  can1  0C000003   [8]  EB FF FA E6 FF F5 FF FF
  can1  18FDB200   [8]  FF FF FF FF 2E 00 FF FF
  can1  0CF00203   [8]  C1 B7 11 FF F7 15 37 03
  can1  18FCF200   [8]  E1 FF FF FF FF FF FF FF
  can1  0CF00C03   [8]  71 04 4C 46 FF FF FF FF
  can1  18FEDF00   [8]  95 A0 28 7D 7D FF FF F1
  can1  18F00F00   [8]  FF FF FF FF FF FF FF FF
  can1  0C000003   [8]  EB FF FA E6 FF F5 FF FF
  can1  0CF00300   [8]  D0 DF 56 FF FF 4F E5 8B
  can1  0CF00203   [8]  C1 BD 11 FF F7 14 37 03
  can1  18FEF100   [8]  FF BC 13 FC FF 44 00 CF
  can1  0CF00400   [8]  61 CE CD 3D 46 03 0F CE
  can1  0C000003   [8]  EB FF FA E6 FF F5 FF FF
  can1  10FDA300   [8]  FF FF 6B FF FF FF FF FF
  can1  0CF00203   [8]  C1 BD 11 FF F7 14 37 03
  can1  18F00029   [8]  F0 7D 7D F3 29 FF FF 2F
  can1  0CF00C03   [8]  72 04 4B 46 FF FF FF FF
  can1  18FD8C00   [8]  FF FF 38 00 FF FF FF FF
  can1  18FEDF00   [8]  95 A0 28 7D 7D FF FF F1
  can1  0C000003   [8]  EB FF FA E6 FF F5 FF FF
  can1  18FCDC00   [8]  9F FF FF FF E0 44 BC 13
  can1  0CF00203   [8]  C1 D3 11 FF F7 3C 37 03
  can1  0CF00300   [8]  D0 E6 57 FF FF 4F E4 8B
  can1  1CFE9200   [8]  FF FF FA FF FF FF 20 01
  can1  18F00131   [8]  FF FF FF 3F 00 FF FF FF
  can1  18E0FF31   [8]  00 FF FF FF FF F0 FF FF
  can1  18FEF131   [8]  F3 FF FF C3 CC FF FF F0
  can1  18FEF031   [8]  FF FF FF FF FF FC CC FF
  can1  18FEFC31   [8]  FF AB FF FF FF FF 00 FF
  can1  18FEAE31   [8]  FF FF 61 61 FF FF FF FF
  can1  18FEF731   [8]  FF FF FF FF 19 01 FF FF
  can1  0CF00400   [8]  31 D0 D0 5E 46 03 0F D0
  can1  18FF4831   [8]  00 00 FF FF 00 00 00 00
  can1  18FD8331   [8]  F8 FF FF FF FF FF FF FF
  can1  18FEF831   [8]  FF FF FF FF FF FF FF FF
  can1  0C000003   [8]  EB FF FA E6 FF F5 FF FF
  can1  0CF00A00   [8]  DE 01 D0 47 FF FF FF FF
  can1  0CF00203   [8]  C1 D3 11 FF F7 3C 37 03
  can1  18F0010B   [8]  CF FF F0 FF FF CD FF FF
  can1  0CF00C03   [8]  70 04 4B 46 FF FF FF FF
  can1  18FD9400   [8]  FD 0C FF FF FF FF FF FF
  can1  18FEF231   [8]  FF FF FF FF FF FF FF FF
  can1  18F00E00   [8]  64 4A FF FF D5 9F FF FF
  can1  18FEFA31   [8]  FF C2 C2 FF FF FF FF FF
  can1  18FEC131   [8]  CA 8D 2C 05 FF FF FF FF
  can1  18FD2000   [8]  C0 44 FF FF FF FF FF FF
  can1  0C010305   [8]  FF FF FF FF FF F3 FF FF
  can1  0CF00331   [8]  FF FF FF FF FF FF FF FF
  can1  18F03300   [8]  FF FF FF FF FF FF FF FF
  can1  18FEDF00   [8]  94 A0 28 7D 7D FF FF F1
  can1  0C000003   [8]  EB FF FA E6 FF F5 FF FF
  can1  18FEE000   [8]  25 92 00 00 6E FB 34 00
  can1  0CF00203   [8]  C1 E8 11 FF F7 7E 37 03
  can1  0CF00300   [8]  D0 EF 5B FF FF 4F E4 8A
  can1  18FEBF0B   [8]  60 14 7D 7D 83 85 FF FF
  can1  18FEF200   [8]  6A 03 E3 00 78 09 E1 FF
  can1  18F00F00   [8]  FF FF FF FF FF FF FF FF
  can1  0CF00400   [8]  51 D4 D3 BC 46 03 0F D4
  can1  0C000003   [8]  EB FF FA E6 FF F5 FF FF
  can1  0CF00203   [8]  C1 E8 11 FF F7 7E 37 03
  can1  0CF00C03   [8]  6B 04 AB 46 FF FF FF FF
  can1  18F00503   [8]  7E 1E 0C 7E 35 20 31 43
  can1  18FE4A03   [8]  03 0F 4F FF FF F3 FF FF
  can1  18FD9503   [8]  CC FF FF B3 FF FF FF FF
  can1  18FEF803   [8]  FF FF FF FF 50 2D FF FF
  can1  18FEDF00   [8]  94 A0 28 7D 7D FF FF F1
  can1  10FCFD00   [8]  FF FF FF FF 86 99 FF FF
  can1  0C000003   [8]  EB FF FA E5 FF F5 FF FF
  can1  0CF00203   [8]  C1 FD 11 FF F7 DB 37 03
  can1  18FD3E00   [8]  80 3A FF E9 34 FF FF FF
  can1  0CF00300   [8]  D4 F5 5F FF FF 4F E3 8A
  can1  18F00100   [8]  FF FF FF FF FF FF FF FF
  can1  0CF00400   [8]  11 D6 D6 2A 47 03 0F D6
  can1  0C000003   [8]  EB FF FA E5 FF F5 FF FF
  can1  0CF00203   [8]  C1 FD 11 FF F7 DB 37 03
  can1  0CF00C03   [8]  69 04 EC 46 FF FF FF FF
  can1  0CF00331   [8]  FF FF FF FF FF FF FF FF
  can1  18FEDF00   [8]  94 A0 28 7D 7D FF FF F1
  can1  0C000003   [8]  EB FF FA E5 FF F5 FF FF
  can1  0CF00203   [8]  C1 27 12 FF F7 B0 38 03
  can1  18FD4000   [8]  FF 3F 00 FF FF FF FF FF
  can1  18FECA03   [8]  00 FF 00 00 00 00 FF FF
  can1  0CF00300   [8]  D4 F7 62 FF FF 4F E2 8A
  can1  0CF00A00   [8]  EE 05 7E 46 FF FF FF FF
  can1  18FEF000   [8]  FF FF FF C0 2B FF FF FF
  can1  18F00E00   [8]  B0 49 FF FF D5 9F FF FF
  can1  18F03300   [8]  FF FF FF FF FF FF FF FF
  can1  0C010305   [8]  FF FF FF FF FF F3 FF FF
  can1  0CF00400   [8]  31 D6 D6 98 47 03 0F D6
  can1  0C000003   [8]  EB FF FA E5 FF F5 FF FF
  can1  18FCF200   [8]  E1 FF FF FF FF FF FF FF
  can1  0CF00203   [8]  C1 27 12 FF F7 B0 38 03
  can1  0CF00C03   [8]  62 04 6C 47 FF FF FF FF
  can1  18FEDF00   [8]  94 A0 28 7D 7D FF FF F1
  can1  18F00F00   [8]  FF FF FF FF FF FF FF FF
  can1  0C000003   [8]  EB FF FA E5 FF F5 FF FF
  can1  0CF00300   [8]  D4 F7 62 FF FF 4F E1 89
  can1  0CF00203   [8]  C1 6A 12 FF F7 41 39 03
  can1  18FEF100   [8]  FF 38 14 FC FF 44 00 CF
  can1  18FCC500   [8]  80 3A FF FF FF FF FF FF
  can1  0CFD9200   [8]  F4 FF FF FF FF FF FF FF
  can1  0CF00400   [8]  41 D7 D6 3E 48 03 0F D7
  can1  0C000003   [8]  EB FF FA E5 FF F5 FF FF
  can1  10FDA300   [8]  FF FF 62 FF FF FF FF FF
  can1  0CF00203   [8]  C1 6A 12 FF F7 41 39 03
  can1  18F00029   [8]  F0 7D 7D F3 29 FF FF 2F
  can1  0CF00C03   [8]  5E 04 14 48 FF FF FF FF
  can1  18FEDF00   [8]  94 A0 28 7D 7D FF FF F1
  can1  0C000003   [8]  EB FF FA E5 FF F5 FF FF
  can1  0CF00203   [8]  C1 BB 12 FF F7 23 3A 03
  can1  18FCDC00   [8]  9F FF FF FF E0 44 38 14
  can1  0CF00300   [8]  D4 F8 63 FF FF 4F E0 89
  can1  1CFE9200   [8]  FF FF FA FF FF FF 5A 01
  can1  18F00131   [8]  FF FF FF 3F 00 FF FF FF
  can1  18FEF131   [8]  F3 FF FF C3 CC FF FF F0
  can1  18FEF031   [8]  FF FF FF FF FF FC CC FF
  can1  18FF4831   [8]  00 00 FF FF 00 00 00 00
  can1  18FEF231   [8]  FF FF FF FF FF FF FF FF
  can1  0CF00331   [8]  FF FF FF FF FF FF FF FF
  can1  0CF00400   [8]  38 D6 D6 5F 48 03 0F D6
  can1  0C000003   [8]  EB FF FA E5 FF F5 FF FF
  can1  0CF00203   [8]  C1 BB 12 FF F7 23 3A 03
  can1  0CF00A00   [8]  62 08 8E 47 FF FF FF FF
  can1  0CF00C03   [8]  57 04 7F 48 FF FF FF FF
  can1  18F0010B   [8]  CF FF F0 FF FF CD FF FF
  can1  18FD9400   [8]  C9 14 FF FF FF FF FF FF
  can1  18FEEF00   [8]  FF FF FF 5D 27 7E FF FA
  can1  18F00E00   [8]  C8 47 FF FF D5 9F FF FF
  can1  18FECA31   [8]  00 FF 00 00 00 00 FF FF
  can1  18F03300   [8]  FF FF FF FF FF FF FF FF
  can1  0C010305   [8]  FF FF FF FF FF F3 FF FF
  can1  18FEDF00   [8]  94 A0 28 7D 7D FF FF F1
  can1  0C000003   [8]  EB FF FA E5 FF F5 FF FF
  can1  18FEE000   [8]  25 92 00 00 6E FB 34 00
  can1  0CF00203   [8]  D1 05 13 FF F7 2D 3B 03
  can1  0CF00300   [8]  D4 F7 63 FF FF 4F DF 89
  can1  18FEBF0B   [8]  30 15 7E 7C 88 88 FF FF
  can1  18FEF200   [8]  0B 03 09 01 79 09 E1 FF
  can1  18F00F00   [8]  FF FF FF FF FF FF FF FF
  can1  0CF00400   [8]  11 D6 D6 D8 48 03 0F D6
  can1  0C000003   [8]  EB FF FA E5 FF F5 FF FF
  can1  18FEDB00   [8]  FF FF B1 8A FF FF FF FF
  can1  0CF00203   [8]  D1 05 13 FF F7 2D 3B 03
  can1  0CF00C03   [8]  51 04 E5 48 FF FF FF FF
  can1  18F00503   [8]  7F 1E 0C 7E 35 20 31 43
  can1  18FE4A03   [8]  03 0F 4F FF FF F3 FF FF
  can1  18FEDF00   [8]  94 A0 28 7D 7D FF FF F1
  can1  10FCFD00   [8]  FF FF FF FF 69 9E FF FF
  can1  0C000003   [8]  EB EB FA E5 FF F5 FF FF
  can1  0CF00203   [8]  D1 3B 13 FF F7 B9 3B 03
  can1  0CF00300   [8]  D4 F4 63 FF FF 4F DE 89
  can1  18F00100   [8]  FF FF FF FF FF FF FF FF
  can1  0CF00400   [8]  41 D4 D4 29 49 03 0F D4
  can1  0C000003   [8]  EB EB FA E5 FF F5 FF FF
  can1  18FEF600   [8]  FF 4C 62 FF FF FF FF FF
  can1  0CF00203   [8]  D1 3B 13 FF F7 B9 3B 03
  can1  0CF00C03   [8]  4C 04 3F 49 FF FF FF FF
  can1  0CF00331   [8]  FF FF FF FF FF FF FF FF
  can1  18FEDF00   [8]  94 A0 28 7D 7D FF FF F1
  can1  0C000003   [8]  EB 7D FA E5 FF F5 FF FF
  can1  0CF00203   [8]  D1 67 13 FF F7 67 3C 03
  can1  0CF00300   [8]  D4 EE 62 FF FF 4F DD 89
  can1  0CF00A00   [8]  1E 09 05 49 FF FF FF FF
  can1  18FEF000   [8]  FF FF FF C0 2B FF FF FF
  can1  18F00E00   [8]  12 46 FF FF D5 9F FF FF
  can1  18F11031   [8]  00 00 FF FF FF FF FF FF
  can1  18F03300   [8]  FF FF FF FF FF FF FF FF
